 time            v(canh_bus)     v(canl_bus)     v(mid)          Vdiff          
 1.00000000e-11  2.50050025e+00  2.49949975e+00  2.50000000e+00  9.99500250e-04 
 2.00000000e-11  2.50100050e+00  2.49899950e+00  2.50000000e+00  1.99900050e-03 
 4.00000000e-11  2.50200100e+00  2.49799900e+00  2.50000000e+00  3.99800100e-03 
 8.00000000e-11  2.50400200e+00  2.49599800e+00  2.50000000e+00  7.99600200e-03 
 1.60000000e-10  2.50800400e+00  2.49199600e+00  2.50000000e+00  1.59920040e-02 
 3.20000000e-10  2.51600800e+00  2.48399200e+00  2.50000000e+00  3.19840080e-02 
 6.40000000e-10  2.53201599e+00  2.46798401e+00  2.50000000e+00  6.39680160e-02 
 1.00000000e-09  2.55002499e+00  2.44997501e+00  2.50000000e+00  9.99500250e-02 
 1.06400000e-09  2.55322659e+00  2.44677341e+00  2.50000000e+00  1.06346827e-01 
 1.19200000e-09  2.55962979e+00  2.44037021e+00  2.50000000e+00  1.19140430e-01 
 1.44800000e-09  2.57243618e+00  2.42756382e+00  2.50000000e+00  1.44727636e-01 
 1.96000000e-09  2.59804898e+00  2.40195102e+00  2.50000000e+00  1.95902049e-01 
 2.96000000e-09  2.64807396e+00  2.35192604e+00  2.50000000e+00  2.95852074e-01 
 3.96000000e-09  2.69809895e+00  2.30190105e+00  2.50000000e+00  3.95802099e-01 
 4.96000000e-09  2.74812394e+00  2.25187606e+00  2.50000000e+00  4.95752124e-01 
 5.96000000e-09  2.79814893e+00  2.20185107e+00  2.50000000e+00  5.95702149e-01 
 6.96000000e-09  2.84817391e+00  2.15182609e+00  2.50000000e+00  6.95652174e-01 
 7.96000000e-09  2.89819890e+00  2.10180110e+00  2.50000000e+00  7.95602199e-01 
 8.96000000e-09  2.94822389e+00  2.05177611e+00  2.50000000e+00  8.95552224e-01 
 9.96000000e-09  2.99824888e+00  2.00175112e+00  2.50000000e+00  9.95502249e-01 
 1.00000000e-08  3.00024988e+00  1.99975012e+00  2.50000000e+00  9.99500250e-01 
 1.00800000e-08  3.00024988e+00  1.99975012e+00  2.50000000e+00  9.99500250e-01 
 1.02400000e-08  3.00024988e+00  1.99975012e+00  2.50000000e+00  9.99500250e-01 
 1.05600000e-08  3.00024988e+00  1.99975012e+00  2.50000000e+00  9.99500250e-01 
 1.12000000e-08  3.00024988e+00  1.99975012e+00  2.50000000e+00  9.99500250e-01 
 1.22000000e-08  3.00024988e+00  1.99975012e+00  2.50000000e+00  9.99500250e-01 
 1.32000000e-08  3.00024988e+00  1.99975012e+00  2.50000000e+00  9.99500250e-01 
 1.42000000e-08  3.00024988e+00  1.99975012e+00  2.50000000e+00  9.99500250e-01 
 1.52000000e-08  3.00024988e+00  1.99975012e+00  2.50000000e+00  9.99500250e-01 
 1.62000000e-08  3.00024988e+00  1.99975012e+00  2.50000000e+00  9.99500250e-01 
 1.72000000e-08  3.00024988e+00  1.99975012e+00  2.50000000e+00  9.99500250e-01 
 1.82000000e-08  3.00024988e+00  1.99975012e+00  2.50000000e+00  9.99500250e-01 
 1.92000000e-08  3.00024988e+00  1.99975012e+00  2.50000000e+00  9.99500250e-01 
 2.02000000e-08  3.00024988e+00  1.99975012e+00  2.50000000e+00  9.99500250e-01 
 2.12000000e-08  3.00024988e+00  1.99975012e+00  2.50000000e+00  9.99500250e-01 
 2.22000000e-08  3.00024988e+00  1.99975012e+00  2.50000000e+00  9.99500250e-01 
 2.32000000e-08  3.00024988e+00  1.99975012e+00  2.50000000e+00  9.99500250e-01 
 2.42000000e-08  3.00024988e+00  1.99975012e+00  2.50000000e+00  9.99500250e-01 
 2.52000000e-08  3.00024988e+00  1.99975012e+00  2.50000000e+00  9.99500250e-01 
 2.62000000e-08  3.00024988e+00  1.99975012e+00  2.50000000e+00  9.99500250e-01 
 2.72000000e-08  3.00024988e+00  1.99975012e+00  2.50000000e+00  9.99500250e-01 
 2.82000000e-08  3.00024988e+00  1.99975012e+00  2.50000000e+00  9.99500250e-01 
 2.92000000e-08  3.00024988e+00  1.99975012e+00  2.50000000e+00  9.99500250e-01 
 3.02000000e-08  3.00024988e+00  1.99975012e+00  2.50000000e+00  9.99500250e-01 
 3.12000000e-08  3.00024988e+00  1.99975012e+00  2.50000000e+00  9.99500250e-01 
 3.22000000e-08  3.00024988e+00  1.99975012e+00  2.50000000e+00  9.99500250e-01 
 3.32000000e-08  3.00024988e+00  1.99975012e+00  2.50000000e+00  9.99500250e-01 
 3.42000000e-08  3.00024988e+00  1.99975012e+00  2.50000000e+00  9.99500250e-01 
 3.52000000e-08  3.00024988e+00  1.99975012e+00  2.50000000e+00  9.99500250e-01 
 3.62000000e-08  3.00024988e+00  1.99975012e+00  2.50000000e+00  9.99500250e-01 
 3.72000000e-08  3.00024988e+00  1.99975012e+00  2.50000000e+00  9.99500250e-01 
 3.82000000e-08  3.00024988e+00  1.99975012e+00  2.50000000e+00  9.99500250e-01 
 3.92000000e-08  3.00024988e+00  1.99975012e+00  2.50000000e+00  9.99500250e-01 
 4.02000000e-08  3.00024988e+00  1.99975012e+00  2.50000000e+00  9.99500250e-01 
 4.12000000e-08  3.00024988e+00  1.99975012e+00  2.50000000e+00  9.99500250e-01 
 4.22000000e-08  3.00024988e+00  1.99975012e+00  2.50000000e+00  9.99500250e-01 
 4.32000000e-08  3.00024988e+00  1.99975012e+00  2.50000000e+00  9.99500250e-01 
 4.42000000e-08  3.00024988e+00  1.99975012e+00  2.50000000e+00  9.99500250e-01 
 4.52000000e-08  3.00024988e+00  1.99975012e+00  2.50000000e+00  9.99500250e-01 
 4.62000000e-08  3.00024988e+00  1.99975012e+00  2.50000000e+00  9.99500250e-01 
 4.72000000e-08  3.00024988e+00  1.99975012e+00  2.50000000e+00  9.99500250e-01 
 4.82000000e-08  3.00024988e+00  1.99975012e+00  2.50000000e+00  9.99500250e-01 
 4.92000000e-08  3.00024988e+00  1.99975012e+00  2.50000000e+00  9.99500250e-01 
 5.02000000e-08  3.00024988e+00  1.99975012e+00  2.50000000e+00  9.99500250e-01 
 5.12000000e-08  3.00024988e+00  1.99975012e+00  2.50000000e+00  9.99500250e-01 
 5.22000000e-08  3.00024988e+00  1.99975012e+00  2.50000000e+00  9.99500250e-01 
 5.32000000e-08  3.00024988e+00  1.99975012e+00  2.50000000e+00  9.99500250e-01 
 5.42000000e-08  3.00024988e+00  1.99975012e+00  2.50000000e+00  9.99500250e-01 
 5.52000000e-08  3.00024988e+00  1.99975012e+00  2.50000000e+00  9.99500250e-01 
 5.62000000e-08  3.00024988e+00  1.99975012e+00  2.50000000e+00  9.99500250e-01 
 5.72000000e-08  3.00024988e+00  1.99975012e+00  2.50000000e+00  9.99500250e-01 
 5.82000000e-08  3.00024988e+00  1.99975012e+00  2.50000000e+00  9.99500250e-01 
 5.92000000e-08  3.00024988e+00  1.99975012e+00  2.50000000e+00  9.99500250e-01 
 6.02000000e-08  3.00024988e+00  1.99975012e+00  2.50000000e+00  9.99500250e-01 
 6.12000000e-08  3.00024988e+00  1.99975012e+00  2.50000000e+00  9.99500250e-01 
 6.22000000e-08  3.00024988e+00  1.99975012e+00  2.50000000e+00  9.99500250e-01 
 6.32000000e-08  3.00024988e+00  1.99975012e+00  2.50000000e+00  9.99500250e-01 
 6.42000000e-08  3.00024988e+00  1.99975012e+00  2.50000000e+00  9.99500250e-01 
 6.52000000e-08  3.00024988e+00  1.99975012e+00  2.50000000e+00  9.99500250e-01 
 6.62000000e-08  3.00024988e+00  1.99975012e+00  2.50000000e+00  9.99500250e-01 
 6.72000000e-08  3.00024988e+00  1.99975012e+00  2.50000000e+00  9.99500250e-01 
 6.82000000e-08  3.00024988e+00  1.99975012e+00  2.50000000e+00  9.99500250e-01 
 6.92000000e-08  3.00024988e+00  1.99975012e+00  2.50000000e+00  9.99500250e-01 
 7.02000000e-08  3.00024988e+00  1.99975012e+00  2.50000000e+00  9.99500250e-01 
 7.12000000e-08  3.00024988e+00  1.99975012e+00  2.50000000e+00  9.99500250e-01 
 7.22000000e-08  3.00024988e+00  1.99975012e+00  2.50000000e+00  9.99500250e-01 
 7.32000000e-08  3.00024988e+00  1.99975012e+00  2.50000000e+00  9.99500250e-01 
 7.42000000e-08  3.00024988e+00  1.99975012e+00  2.50000000e+00  9.99500250e-01 
 7.52000000e-08  3.00024988e+00  1.99975012e+00  2.50000000e+00  9.99500250e-01 
 7.62000000e-08  3.00024988e+00  1.99975012e+00  2.50000000e+00  9.99500250e-01 
 7.72000000e-08  3.00024988e+00  1.99975012e+00  2.50000000e+00  9.99500250e-01 
 7.82000000e-08  3.00024988e+00  1.99975012e+00  2.50000000e+00  9.99500250e-01 
 7.92000000e-08  3.00024988e+00  1.99975012e+00  2.50000000e+00  9.99500250e-01 
 8.02000000e-08  3.00024988e+00  1.99975012e+00  2.50000000e+00  9.99500250e-01 
 8.12000000e-08  3.00024988e+00  1.99975012e+00  2.50000000e+00  9.99500250e-01 
 8.22000000e-08  3.00024988e+00  1.99975012e+00  2.50000000e+00  9.99500250e-01 
 8.32000000e-08  3.00024988e+00  1.99975012e+00  2.50000000e+00  9.99500250e-01 
 8.42000000e-08  3.00024988e+00  1.99975012e+00  2.50000000e+00  9.99500250e-01 
 8.52000000e-08  3.00024988e+00  1.99975012e+00  2.50000000e+00  9.99500250e-01 
 8.62000000e-08  3.00024988e+00  1.99975012e+00  2.50000000e+00  9.99500250e-01 
 8.72000000e-08  3.00024988e+00  1.99975012e+00  2.50000000e+00  9.99500250e-01 
 8.82000000e-08  3.00024988e+00  1.99975012e+00  2.50000000e+00  9.99500250e-01 
 8.92000000e-08  3.00024988e+00  1.99975012e+00  2.50000000e+00  9.99500250e-01 
 9.02000000e-08  3.00024988e+00  1.99975012e+00  2.50000000e+00  9.99500250e-01 
 9.12000000e-08  3.00024988e+00  1.99975012e+00  2.50000000e+00  9.99500250e-01 
 9.22000000e-08  3.00024988e+00  1.99975012e+00  2.50000000e+00  9.99500250e-01 
 9.32000000e-08  3.00024988e+00  1.99975012e+00  2.50000000e+00  9.99500250e-01 
 9.42000000e-08  3.00024988e+00  1.99975012e+00  2.50000000e+00  9.99500250e-01 
 9.52000000e-08  3.00024988e+00  1.99975012e+00  2.50000000e+00  9.99500250e-01 
 9.62000000e-08  3.00024988e+00  1.99975012e+00  2.50000000e+00  9.99500250e-01 
 9.72000000e-08  3.00024988e+00  1.99975012e+00  2.50000000e+00  9.99500250e-01 
 9.82000000e-08  3.00024988e+00  1.99975012e+00  2.50000000e+00  9.99500250e-01 
 9.92000000e-08  3.00024988e+00  1.99975012e+00  2.50000000e+00  9.99500250e-01 
 1.00200000e-07  3.00024988e+00  1.99975012e+00  2.50000000e+00  9.99500250e-01 
 1.01200000e-07  3.00024988e+00  1.99975012e+00  2.50000000e+00  9.99500250e-01 
 1.02200000e-07  3.00024988e+00  1.99975012e+00  2.50000000e+00  9.99500250e-01 
 1.03200000e-07  3.00024988e+00  1.99975012e+00  2.50000000e+00  9.99500250e-01 
 1.04200000e-07  3.00024988e+00  1.99975012e+00  2.50000000e+00  9.99500250e-01 
 1.05200000e-07  3.00024988e+00  1.99975012e+00  2.50000000e+00  9.99500250e-01 
 1.06200000e-07  3.00024988e+00  1.99975012e+00  2.50000000e+00  9.99500250e-01 
 1.07200000e-07  3.00024988e+00  1.99975012e+00  2.50000000e+00  9.99500250e-01 
 1.08200000e-07  3.00024988e+00  1.99975012e+00  2.50000000e+00  9.99500250e-01 
 1.09200000e-07  3.00024988e+00  1.99975012e+00  2.50000000e+00  9.99500250e-01 
 1.10200000e-07  3.00024988e+00  1.99975012e+00  2.50000000e+00  9.99500250e-01 
 1.11200000e-07  3.00024988e+00  1.99975012e+00  2.50000000e+00  9.99500250e-01 
 1.12200000e-07  3.00024988e+00  1.99975012e+00  2.50000000e+00  9.99500250e-01 
 1.13200000e-07  3.00024988e+00  1.99975012e+00  2.50000000e+00  9.99500250e-01 
 1.14200000e-07  3.00024988e+00  1.99975012e+00  2.50000000e+00  9.99500250e-01 
 1.15200000e-07  3.00024988e+00  1.99975012e+00  2.50000000e+00  9.99500250e-01 
 1.16200000e-07  3.00024988e+00  1.99975012e+00  2.50000000e+00  9.99500250e-01 
 1.17200000e-07  3.00024988e+00  1.99975012e+00  2.50000000e+00  9.99500250e-01 
 1.18200000e-07  3.00024988e+00  1.99975012e+00  2.50000000e+00  9.99500250e-01 
 1.19200000e-07  3.00024988e+00  1.99975012e+00  2.50000000e+00  9.99500250e-01 
 1.20200000e-07  3.00024988e+00  1.99975012e+00  2.50000000e+00  9.99500250e-01 
 1.21200000e-07  3.00024988e+00  1.99975012e+00  2.50000000e+00  9.99500250e-01 
 1.22200000e-07  3.00024988e+00  1.99975012e+00  2.50000000e+00  9.99500250e-01 
 1.23200000e-07  3.00024988e+00  1.99975012e+00  2.50000000e+00  9.99500250e-01 
 1.24200000e-07  3.00024988e+00  1.99975012e+00  2.50000000e+00  9.99500250e-01 
 1.25200000e-07  3.00024988e+00  1.99975012e+00  2.50000000e+00  9.99500250e-01 
 1.26200000e-07  3.00024988e+00  1.99975012e+00  2.50000000e+00  9.99500250e-01 
 1.27200000e-07  3.00024988e+00  1.99975012e+00  2.50000000e+00  9.99500250e-01 
 1.28200000e-07  3.00024988e+00  1.99975012e+00  2.50000000e+00  9.99500250e-01 
 1.29200000e-07  3.00024988e+00  1.99975012e+00  2.50000000e+00  9.99500250e-01 
 1.30200000e-07  3.00024988e+00  1.99975012e+00  2.50000000e+00  9.99500250e-01 
 1.31200000e-07  3.00024988e+00  1.99975012e+00  2.50000000e+00  9.99500250e-01 
 1.32200000e-07  3.00024988e+00  1.99975012e+00  2.50000000e+00  9.99500250e-01 
 1.33200000e-07  3.00024988e+00  1.99975012e+00  2.50000000e+00  9.99500250e-01 
 1.34200000e-07  3.00024988e+00  1.99975012e+00  2.50000000e+00  9.99500250e-01 
 1.35200000e-07  3.00024988e+00  1.99975012e+00  2.50000000e+00  9.99500250e-01 
 1.36200000e-07  3.00024988e+00  1.99975012e+00  2.50000000e+00  9.99500250e-01 
 1.37200000e-07  3.00024988e+00  1.99975012e+00  2.50000000e+00  9.99500250e-01 
 1.38200000e-07  3.00024988e+00  1.99975012e+00  2.50000000e+00  9.99500250e-01 
 1.39200000e-07  3.00024988e+00  1.99975012e+00  2.50000000e+00  9.99500250e-01 
 1.40200000e-07  3.00024988e+00  1.99975012e+00  2.50000000e+00  9.99500250e-01 
 1.41200000e-07  3.00024988e+00  1.99975012e+00  2.50000000e+00  9.99500250e-01 
 1.42200000e-07  3.00024988e+00  1.99975012e+00  2.50000000e+00  9.99500250e-01 
 1.43200000e-07  3.00024988e+00  1.99975012e+00  2.50000000e+00  9.99500250e-01 
 1.44200000e-07  3.00024988e+00  1.99975012e+00  2.50000000e+00  9.99500250e-01 
 1.45200000e-07  3.00024988e+00  1.99975012e+00  2.50000000e+00  9.99500250e-01 
 1.46200000e-07  3.00024988e+00  1.99975012e+00  2.50000000e+00  9.99500250e-01 
 1.47200000e-07  3.00024988e+00  1.99975012e+00  2.50000000e+00  9.99500250e-01 
 1.48200000e-07  3.00024988e+00  1.99975012e+00  2.50000000e+00  9.99500250e-01 
 1.49200000e-07  3.00024988e+00  1.99975012e+00  2.50000000e+00  9.99500250e-01 
 1.50200000e-07  3.00024988e+00  1.99975012e+00  2.50000000e+00  9.99500250e-01 
 1.51200000e-07  3.00024988e+00  1.99975012e+00  2.50000000e+00  9.99500250e-01 
 1.52200000e-07  3.00024988e+00  1.99975012e+00  2.50000000e+00  9.99500250e-01 
 1.53200000e-07  3.00024988e+00  1.99975012e+00  2.50000000e+00  9.99500250e-01 
 1.54200000e-07  3.00024988e+00  1.99975012e+00  2.50000000e+00  9.99500250e-01 
 1.55200000e-07  3.00024988e+00  1.99975012e+00  2.50000000e+00  9.99500250e-01 
 1.56200000e-07  3.00024988e+00  1.99975012e+00  2.50000000e+00  9.99500250e-01 
 1.57200000e-07  3.00024988e+00  1.99975012e+00  2.50000000e+00  9.99500250e-01 
 1.58200000e-07  3.00024988e+00  1.99975012e+00  2.50000000e+00  9.99500250e-01 
 1.59200000e-07  3.00024988e+00  1.99975012e+00  2.50000000e+00  9.99500250e-01 
 1.60200000e-07  3.00024988e+00  1.99975012e+00  2.50000000e+00  9.99500250e-01 
 1.61200000e-07  3.00024988e+00  1.99975012e+00  2.50000000e+00  9.99500250e-01 
 1.62200000e-07  3.00024988e+00  1.99975012e+00  2.50000000e+00  9.99500250e-01 
 1.63200000e-07  3.00024988e+00  1.99975012e+00  2.50000000e+00  9.99500250e-01 
 1.64200000e-07  3.00024988e+00  1.99975012e+00  2.50000000e+00  9.99500250e-01 
 1.65200000e-07  3.00024988e+00  1.99975012e+00  2.50000000e+00  9.99500250e-01 
 1.66200000e-07  3.00024988e+00  1.99975012e+00  2.50000000e+00  9.99500250e-01 
 1.67200000e-07  3.00024988e+00  1.99975012e+00  2.50000000e+00  9.99500250e-01 
 1.68200000e-07  3.00024988e+00  1.99975012e+00  2.50000000e+00  9.99500250e-01 
 1.69200000e-07  3.00024988e+00  1.99975012e+00  2.50000000e+00  9.99500250e-01 
 1.70200000e-07  3.00024988e+00  1.99975012e+00  2.50000000e+00  9.99500250e-01 
 1.71200000e-07  3.00024988e+00  1.99975012e+00  2.50000000e+00  9.99500250e-01 
 1.72200000e-07  3.00024988e+00  1.99975012e+00  2.50000000e+00  9.99500250e-01 
 1.73200000e-07  3.00024988e+00  1.99975012e+00  2.50000000e+00  9.99500250e-01 
 1.74200000e-07  3.00024988e+00  1.99975012e+00  2.50000000e+00  9.99500250e-01 
 1.75200000e-07  3.00024988e+00  1.99975012e+00  2.50000000e+00  9.99500250e-01 
 1.76200000e-07  3.00024988e+00  1.99975012e+00  2.50000000e+00  9.99500250e-01 
 1.77200000e-07  3.00024988e+00  1.99975012e+00  2.50000000e+00  9.99500250e-01 
 1.78200000e-07  3.00024988e+00  1.99975012e+00  2.50000000e+00  9.99500250e-01 
 1.79200000e-07  3.00024988e+00  1.99975012e+00  2.50000000e+00  9.99500250e-01 
 1.80200000e-07  3.00024988e+00  1.99975012e+00  2.50000000e+00  9.99500250e-01 
 1.81200000e-07  3.00024988e+00  1.99975012e+00  2.50000000e+00  9.99500250e-01 
 1.82200000e-07  3.00024988e+00  1.99975012e+00  2.50000000e+00  9.99500250e-01 
 1.83200000e-07  3.00024988e+00  1.99975012e+00  2.50000000e+00  9.99500250e-01 
 1.84200000e-07  3.00024988e+00  1.99975012e+00  2.50000000e+00  9.99500250e-01 
 1.85200000e-07  3.00024988e+00  1.99975012e+00  2.50000000e+00  9.99500250e-01 
 1.86200000e-07  3.00024988e+00  1.99975012e+00  2.50000000e+00  9.99500250e-01 
 1.87200000e-07  3.00024988e+00  1.99975012e+00  2.50000000e+00  9.99500250e-01 
 1.88200000e-07  3.00024988e+00  1.99975012e+00  2.50000000e+00  9.99500250e-01 
 1.89200000e-07  3.00024988e+00  1.99975012e+00  2.50000000e+00  9.99500250e-01 
 1.90200000e-07  3.00024988e+00  1.99975012e+00  2.50000000e+00  9.99500250e-01 
 1.91200000e-07  3.00024988e+00  1.99975012e+00  2.50000000e+00  9.99500250e-01 
 1.92200000e-07  3.00024988e+00  1.99975012e+00  2.50000000e+00  9.99500250e-01 
 1.93200000e-07  3.00024988e+00  1.99975012e+00  2.50000000e+00  9.99500250e-01 
 1.94200000e-07  3.00024988e+00  1.99975012e+00  2.50000000e+00  9.99500250e-01 
 1.95200000e-07  3.00024988e+00  1.99975012e+00  2.50000000e+00  9.99500250e-01 
 1.96200000e-07  3.00024988e+00  1.99975012e+00  2.50000000e+00  9.99500250e-01 
 1.97200000e-07  3.00024988e+00  1.99975012e+00  2.50000000e+00  9.99500250e-01 
 1.98200000e-07  3.00024988e+00  1.99975012e+00  2.50000000e+00  9.99500250e-01 
 1.99200000e-07  3.00024988e+00  1.99975012e+00  2.50000000e+00  9.99500250e-01 
 2.00200000e-07  3.00024988e+00  1.99975012e+00  2.50000000e+00  9.99500250e-01 
 2.01200000e-07  3.00024988e+00  1.99975012e+00  2.50000000e+00  9.99500250e-01 
 2.02200000e-07  3.00024988e+00  1.99975012e+00  2.50000000e+00  9.99500250e-01 
 2.03200000e-07  3.00024988e+00  1.99975012e+00  2.50000000e+00  9.99500250e-01 
 2.04200000e-07  3.00024988e+00  1.99975012e+00  2.50000000e+00  9.99500250e-01 
 2.05200000e-07  3.00024988e+00  1.99975012e+00  2.50000000e+00  9.99500250e-01 
 2.06200000e-07  3.00024988e+00  1.99975012e+00  2.50000000e+00  9.99500250e-01 
 2.07200000e-07  3.00024988e+00  1.99975012e+00  2.50000000e+00  9.99500250e-01 
 2.08200000e-07  3.00024988e+00  1.99975012e+00  2.50000000e+00  9.99500250e-01 
 2.09200000e-07  3.00024988e+00  1.99975012e+00  2.50000000e+00  9.99500250e-01 
 2.10200000e-07  3.00024988e+00  1.99975012e+00  2.50000000e+00  9.99500250e-01 
 2.11200000e-07  3.00024988e+00  1.99975012e+00  2.50000000e+00  9.99500250e-01 
 2.12200000e-07  3.00024988e+00  1.99975012e+00  2.50000000e+00  9.99500250e-01 
 2.13200000e-07  3.00024988e+00  1.99975012e+00  2.50000000e+00  9.99500250e-01 
 2.14200000e-07  3.00024988e+00  1.99975012e+00  2.50000000e+00  9.99500250e-01 
 2.15200000e-07  3.00024988e+00  1.99975012e+00  2.50000000e+00  9.99500250e-01 
 2.16200000e-07  3.00024988e+00  1.99975012e+00  2.50000000e+00  9.99500250e-01 
 2.17200000e-07  3.00024988e+00  1.99975012e+00  2.50000000e+00  9.99500250e-01 
 2.18200000e-07  3.00024988e+00  1.99975012e+00  2.50000000e+00  9.99500250e-01 
 2.19200000e-07  3.00024988e+00  1.99975012e+00  2.50000000e+00  9.99500250e-01 
 2.20200000e-07  3.00024988e+00  1.99975012e+00  2.50000000e+00  9.99500250e-01 
 2.21200000e-07  3.00024988e+00  1.99975012e+00  2.50000000e+00  9.99500250e-01 
 2.22200000e-07  3.00024988e+00  1.99975012e+00  2.50000000e+00  9.99500250e-01 
 2.23200000e-07  3.00024988e+00  1.99975012e+00  2.50000000e+00  9.99500250e-01 
 2.24200000e-07  3.00024988e+00  1.99975012e+00  2.50000000e+00  9.99500250e-01 
 2.25200000e-07  3.00024988e+00  1.99975012e+00  2.50000000e+00  9.99500250e-01 
 2.26200000e-07  3.00024988e+00  1.99975012e+00  2.50000000e+00  9.99500250e-01 
 2.27200000e-07  3.00024988e+00  1.99975012e+00  2.50000000e+00  9.99500250e-01 
 2.28200000e-07  3.00024988e+00  1.99975012e+00  2.50000000e+00  9.99500250e-01 
 2.29200000e-07  3.00024988e+00  1.99975012e+00  2.50000000e+00  9.99500250e-01 
 2.30200000e-07  3.00024988e+00  1.99975012e+00  2.50000000e+00  9.99500250e-01 
 2.31200000e-07  3.00024988e+00  1.99975012e+00  2.50000000e+00  9.99500250e-01 
