 time            v(conn_pin)     v(gate)         v(mcu_gpio)     v_am_esd#branch
 1.00000000e-09  4.51627249e-04  6.85459870e-05  0.00000000e+00 -1.11495366e-05 
 2.00000000e-09  4.94737413e-04  6.66652611e-05  0.00000000e+00 -1.20309351e-06 
 4.00000000e-09  5.02083610e-04  5.19851723e-05  0.00000000e+00  6.28994048e-07 
 8.00000000e-09  5.00110390e-04  2.92644512e-05  0.00000000e+00  9.21676845e-08 
 1.60000000e-08  4.99872685e-04  6.85173095e-06  0.00000000e+00 -7.83939657e-09 
 3.20000000e-08  4.99979606e-04 -4.68502755e-06  0.00000000e+00 -8.87090422e-10 
 6.40000000e-08  4.99977030e-04 -3.74128464e-06  0.00000000e+00  1.17138570e-10 
 1.00000000e-07  4.99955755e-04 -7.13351707e-07  0.00000000e+00  2.12626236e-11 
 1.06400000e-07  4.99953057e-04 -3.28818014e-07  0.00000000e+00  1.00392750e-11 
 1.19200000e-07  4.99950441e-04  4.49556211e-08  0.00000000e+00  9.68745917e-13 
 1.44800000e-07  4.99949473e-04  1.83410706e-07  0.00000000e+00 -2.34961356e-12 
 1.96000000e-07  4.99949754e-04  1.43190731e-07  0.00000000e+00 -1.37898026e-12 
 2.96000000e-07  4.99950001e-04  1.07975629e-07  0.00000000e+00 -5.29666588e-13 
 3.96000000e-07  4.99950012e-04  1.06393573e-07  0.00000000e+00 -4.91509611e-13 
 4.96000000e-07  4.99950005e-04  1.07339406e-07  0.00000000e+00 -5.14317755e-13 
 5.96000000e-07  4.99950004e-04  1.07515083e-07  0.00000000e+00 -5.18550480e-13 
 6.96000000e-07  4.99950004e-04  1.07507123e-07  0.00000000e+00 -5.18377008e-13 
 7.96000000e-07  4.99950004e-04  1.07500328e-07  0.00000000e+00 -5.18189658e-13 
 8.96000000e-07  4.99950004e-04  1.07499699e-07  0.00000000e+00 -5.18196597e-13 
 9.96000000e-07  4.99950004e-04  1.07499839e-07  0.00000000e+00 -5.18182719e-13 
 1.09600000e-06  4.99950004e-04  1.07499878e-07  0.00000000e+00 -5.18196597e-13 
 1.19600000e-06  4.99950004e-04  1.07499878e-07  0.00000000e+00 -5.18182719e-13 
 1.29600000e-06  4.99950004e-04  1.07499877e-07  0.00000000e+00 -5.18196597e-13 
 1.39600000e-06  4.99950004e-04  1.07499877e-07  0.00000000e+00 -5.18182719e-13 
 1.49600000e-06  4.99950004e-04  1.07499877e-07  0.00000000e+00 -5.18203536e-13 
 1.59600000e-06  4.99950004e-04  1.07499877e-07  0.00000000e+00 -5.18182719e-13 
 1.69600000e-06  4.99950004e-04  1.07499877e-07  0.00000000e+00 -5.18203536e-13 
 1.79600000e-06  4.99950004e-04  1.07499877e-07  0.00000000e+00 -5.18168841e-13 
 1.89600000e-06  4.99950004e-04  1.07499877e-07  0.00000000e+00 -5.18196597e-13 
 1.99600000e-06  4.99950004e-04  1.07499877e-07  0.00000000e+00 -5.18196597e-13 
 2.09600000e-06  4.99950004e-04  1.07499877e-07  0.00000000e+00 -5.18189658e-13 
 2.19600000e-06  4.99950004e-04  1.07499877e-07  0.00000000e+00 -5.18182719e-13 
 2.29600000e-06  4.99950004e-04  1.07499877e-07  0.00000000e+00 -5.18203536e-13 
 2.39600000e-06  4.99950004e-04  1.07499877e-07  0.00000000e+00 -5.18182719e-13 
 2.49600000e-06  4.99950004e-04  1.07499877e-07  0.00000000e+00 -5.18196597e-13 
 2.59600000e-06  4.99950004e-04  1.07499877e-07  0.00000000e+00 -5.18182719e-13 
 2.69600000e-06  4.99950004e-04  1.07499877e-07  0.00000000e+00 -5.18196597e-13 
 2.79600000e-06  4.99950004e-04  1.07499877e-07  0.00000000e+00 -5.18189658e-13 
 2.89600000e-06  4.99950004e-04  1.07499877e-07  0.00000000e+00 -5.18196597e-13 
 2.99600000e-06  4.99950004e-04  1.07499877e-07  0.00000000e+00 -5.18175780e-13 
 3.09600000e-06  4.99950004e-04  1.07499877e-07  0.00000000e+00 -5.18189658e-13 
 3.19600000e-06  4.99950004e-04  1.07499877e-07  0.00000000e+00 -5.18203536e-13 
 3.29600000e-06  4.99950004e-04  1.07499877e-07  0.00000000e+00 -5.18175780e-13 
 3.39600000e-06  4.99950004e-04  1.07499877e-07  0.00000000e+00 -5.18196597e-13 
 3.49600000e-06  4.99950004e-04  1.07499877e-07  0.00000000e+00 -5.18196597e-13 
 3.59600000e-06  4.99950004e-04  1.07499877e-07  0.00000000e+00 -5.18182719e-13 
 3.69600000e-06  4.99950004e-04  1.07499877e-07  0.00000000e+00 -5.18182719e-13 
 3.79600000e-06  4.99950004e-04  1.07499877e-07  0.00000000e+00 -5.18203536e-13 
 3.89600000e-06  4.99950004e-04  1.07499877e-07  0.00000000e+00 -5.18189658e-13 
 3.99600000e-06  4.99950004e-04  1.07499877e-07  0.00000000e+00 -5.18182719e-13 
 4.09600000e-06  4.99950004e-04  1.07499877e-07  0.00000000e+00 -5.18203536e-13 
 4.19600000e-06  4.99950004e-04  1.07499877e-07  0.00000000e+00 -5.18175780e-13 
 4.29600000e-06  4.99950004e-04  1.07499877e-07  0.00000000e+00 -5.18196597e-13 
 4.39600000e-06  4.99950004e-04  1.07499877e-07  0.00000000e+00 -5.18196597e-13 
 4.49600000e-06  4.99950004e-04  1.07499877e-07  0.00000000e+00 -5.18189658e-13 
 4.59600000e-06  4.99950004e-04  1.07499877e-07  0.00000000e+00 -5.18189658e-13 
 4.69600000e-06  4.99950004e-04  1.07499877e-07  0.00000000e+00 -5.18182719e-13 
 4.79600000e-06  4.99950004e-04  1.07499877e-07  0.00000000e+00 -5.18196597e-13 
 4.89600000e-06  4.99950004e-04  1.07499877e-07  0.00000000e+00 -5.18182719e-13 
 4.99600000e-06  4.99950004e-04  1.07499877e-07  0.00000000e+00 -5.18203536e-13 
 5.00000000e-06  4.99950004e-04  1.07499877e-07  0.00000000e+00 -5.18064758e-13 
 5.00020560e-06  1.68613803e-02  2.76737248e-03  0.00000000e+00 -1.86520443e-03 
 5.00061680e-06  6.11714887e-02  1.00162929e-02  0.00000000e+00 -3.07610005e-03 
 5.00143919e-06  1.59947283e-01  2.50158289e-02  0.00000000e+00 -2.93654922e-03 
 5.00222606e-06  2.55305156e-01  3.80401999e-02  0.00000000e+00 -2.60564571e-03 
 5.00379980e-06  4.44676209e-01  6.01230714e-02  0.00000000e+00 -2.32462057e-03 
 5.00694727e-06  8.22800188e-01  9.27088284e-02  0.00000000e+00 -1.99727403e-03 
 5.01324223e-06  1.57873513e+00  1.29491648e-01  0.00000000e+00 -1.59781056e-03 
 5.02166265e-06  2.58955637e+00  1.48514697e-01  0.00000000e+00 -1.32814596e-03 
 5.03293861e-06  3.94295683e+00  1.53925944e-01  0.00000000e+00 -1.12454642e-03 
 5.04772768e-06  5.71784458e+00  1.52827847e-01  0.00000000e+00 -9.60706276e-04 
 5.06988184e-06  7.45183451e+00  9.59809599e-02  0.00000000e+00 -9.29921168e-01 
 5.09055206e-06  8.29798873e+00  4.57784394e-02  0.00000000e+00 -2.56625662e+00 
 5.10000000e-06  8.67970787e+00  4.52792381e-02  0.00000000e+00 -3.31719452e+00 
 5.10204954e-06  8.67997885e+00  3.53278489e-02  0.00000000e+00 -3.31939964e+00 
 5.10614862e-06  8.67998776e+00  2.04192292e-02  0.00000000e+00 -3.31950935e+00 
 5.11070171e-06  8.67997838e+00  1.04211466e-02  0.00000000e+00 -3.31958203e+00 
 5.11847643e-06  8.67999711e+00  2.30650917e-03  0.00000000e+00 -3.31961866e+00 
 5.12622278e-06  8.68000303e+00 -2.24938717e-04  0.00000000e+00 -3.31963052e+00 
 5.13449527e-06  8.68000403e+00 -6.53892159e-04  0.00000000e+00 -3.31963249e+00 
 5.14519637e-06  8.68000353e+00 -4.39478558e-04  0.00000000e+00 -3.31963150e+00 
 5.16190265e-06  8.68000280e+00 -1.28599615e-04  0.00000000e+00 -3.31963008e+00 
 5.19531523e-06  8.68000243e+00  3.19968593e-05  0.00000000e+00 -3.31962934e+00 
 5.26214038e-06  8.68000244e+00  2.46818365e-05  0.00000000e+00 -3.31962938e+00 
 5.36214038e-06  8.68000250e+00  2.23629862e-06  0.00000000e+00 -3.31962948e+00 
 5.46214038e-06  8.68000250e+00 -4.17938209e-07  0.00000000e+00 -3.31962949e+00 
 5.56214038e-06  8.68000250e+00 -3.09192698e-08  0.00000000e+00 -3.31962949e+00 
 5.66214038e-06  8.68000250e+00  1.06575945e-07  0.00000000e+00 -3.31962949e+00 
 5.76214038e-06  8.68000250e+00  1.11907883e-07  0.00000000e+00 -3.31962949e+00 
 5.86214038e-06  8.68000250e+00  1.08107008e-07  0.00000000e+00 -3.31962949e+00 
 5.96214038e-06  8.68000250e+00  1.07435111e-07  0.00000000e+00 -3.31962949e+00 
 6.06214038e-06  8.68000250e+00  1.07471534e-07  0.00000000e+00 -3.31962949e+00 
 6.16214038e-06  8.68000250e+00  1.07498288e-07  0.00000000e+00 -3.31962949e+00 
 6.26214038e-06  8.68000250e+00  1.07500596e-07  0.00000000e+00 -3.31962949e+00 
 6.36214038e-06  8.68000250e+00  1.07500023e-07  0.00000000e+00 -3.31962949e+00 
 6.46214038e-06  8.68000250e+00  1.07499872e-07  0.00000000e+00 -3.31962949e+00 
 6.56214038e-06  8.68000250e+00  1.07499871e-07  0.00000000e+00 -3.31962949e+00 
 6.66214038e-06  8.68000250e+00  1.07499877e-07  0.00000000e+00 -3.31962949e+00 
 6.76214038e-06  8.68000250e+00  1.07499876e-07  0.00000000e+00 -3.31962949e+00 
 6.86214038e-06  8.68000250e+00  1.07499876e-07  0.00000000e+00 -3.31962949e+00 
 6.96214038e-06  8.68000250e+00  1.07499877e-07  0.00000000e+00 -3.31962949e+00 
 7.06214038e-06  8.68000250e+00  1.07499877e-07  0.00000000e+00 -3.31962949e+00 
 7.16214038e-06  8.68000250e+00  1.07499877e-07  0.00000000e+00 -3.31962949e+00 
 7.26214038e-06  8.68000250e+00  1.07499876e-07  0.00000000e+00 -3.31962949e+00 
 7.36214038e-06  8.68000250e+00  1.07499877e-07  0.00000000e+00 -3.31962949e+00 
 7.46214038e-06  8.68000250e+00  1.07499876e-07  0.00000000e+00 -3.31962949e+00 
 7.56214038e-06  8.68000250e+00  1.07499876e-07  0.00000000e+00 -3.31962949e+00 
 7.66214038e-06  8.68000250e+00  1.07499877e-07  0.00000000e+00 -3.31962949e+00 
 7.76214038e-06  8.68000250e+00  1.07499877e-07  0.00000000e+00 -3.31962949e+00 
 7.86214038e-06  8.68000250e+00  1.07499877e-07  0.00000000e+00 -3.31962949e+00 
 7.96214038e-06  8.68000250e+00  1.07499876e-07  0.00000000e+00 -3.31962949e+00 
 8.06214038e-06  8.68000250e+00  1.07499877e-07  0.00000000e+00 -3.31962949e+00 
 8.16214038e-06  8.68000250e+00  1.07499876e-07  0.00000000e+00 -3.31962949e+00 
 8.26214038e-06  8.68000250e+00  1.07499876e-07  0.00000000e+00 -3.31962949e+00 
 8.36214038e-06  8.68000250e+00  1.07499877e-07  0.00000000e+00 -3.31962949e+00 
 8.46214038e-06  8.68000250e+00  1.07499877e-07  0.00000000e+00 -3.31962949e+00 
 8.56214038e-06  8.68000250e+00  1.07499877e-07  0.00000000e+00 -3.31962949e+00 
 8.66214038e-06  8.68000250e+00  1.07499876e-07  0.00000000e+00 -3.31962949e+00 
 8.76214038e-06  8.68000250e+00  1.07499877e-07  0.00000000e+00 -3.31962949e+00 
 8.86214038e-06  8.68000250e+00  1.07499876e-07  0.00000000e+00 -3.31962949e+00 
 8.96214038e-06  8.68000250e+00  1.07499876e-07  0.00000000e+00 -3.31962949e+00 
 9.06214038e-06  8.68000250e+00  1.07499877e-07  0.00000000e+00 -3.31962949e+00 
 9.16214038e-06  8.68000250e+00  1.07499877e-07  0.00000000e+00 -3.31962949e+00 
 9.26214038e-06  8.68000250e+00  1.07499877e-07  0.00000000e+00 -3.31962949e+00 
 9.36214038e-06  8.68000250e+00  1.07499876e-07  0.00000000e+00 -3.31962949e+00 
 9.46214038e-06  8.68000250e+00  1.07499877e-07  0.00000000e+00 -3.31962949e+00 
 9.56214038e-06  8.68000250e+00  1.07499876e-07  0.00000000e+00 -3.31962949e+00 
 9.66214038e-06  8.68000250e+00  1.07499876e-07  0.00000000e+00 -3.31962949e+00 
 9.76214038e-06  8.68000250e+00  1.07499877e-07  0.00000000e+00 -3.31962949e+00 
 9.86214038e-06  8.68000250e+00  1.07499877e-07  0.00000000e+00 -3.31962949e+00 
 9.96214038e-06  8.68000250e+00  1.07499877e-07  0.00000000e+00 -3.31962949e+00 
 1.00621404e-05  8.68000250e+00  1.07499876e-07  0.00000000e+00 -3.31962949e+00 
 1.01621404e-05  8.68000250e+00  1.07499877e-07  0.00000000e+00 -3.31962949e+00 
 1.02621404e-05  8.68000250e+00  1.07499876e-07  0.00000000e+00 -3.31962949e+00 
 1.03621404e-05  8.68000250e+00  1.07499876e-07  0.00000000e+00 -3.31962949e+00 
 1.04621404e-05  8.68000250e+00  1.07499877e-07  0.00000000e+00 -3.31962949e+00 
 1.05621404e-05  8.68000250e+00  1.07499877e-07  0.00000000e+00 -3.31962949e+00 
 1.06621404e-05  8.68000250e+00  1.07499877e-07  0.00000000e+00 -3.31962949e+00 
 1.07621404e-05  8.68000250e+00  1.07499876e-07  0.00000000e+00 -3.31962949e+00 
 1.08621404e-05  8.68000250e+00  1.07499877e-07  0.00000000e+00 -3.31962949e+00 
 1.09621404e-05  8.68000250e+00  1.07499876e-07  0.00000000e+00 -3.31962949e+00 
 1.10621404e-05  8.68000250e+00  1.07499876e-07  0.00000000e+00 -3.31962949e+00 
 1.11621404e-05  8.68000250e+00  1.07499877e-07  0.00000000e+00 -3.31962949e+00 
 1.12621404e-05  8.68000250e+00  1.07499877e-07  0.00000000e+00 -3.31962949e+00 
 1.13621404e-05  8.68000250e+00  1.07499877e-07  0.00000000e+00 -3.31962949e+00 
 1.14621404e-05  8.68000250e+00  1.07499876e-07  0.00000000e+00 -3.31962949e+00 
 1.15621404e-05  8.68000250e+00  1.07499877e-07  0.00000000e+00 -3.31962949e+00 
 1.16621404e-05  8.68000250e+00  1.07499876e-07  0.00000000e+00 -3.31962949e+00 
 1.17621404e-05  8.68000250e+00  1.07499876e-07  0.00000000e+00 -3.31962949e+00 
 1.18621404e-05  8.68000250e+00  1.07499877e-07  0.00000000e+00 -3.31962949e+00 
 1.19621404e-05  8.68000250e+00  1.07499877e-07  0.00000000e+00 -3.31962949e+00 
 1.20621404e-05  8.68000250e+00  1.07499877e-07  0.00000000e+00 -3.31962949e+00 
 1.21621404e-05  8.68000250e+00  1.07499876e-07  0.00000000e+00 -3.31962949e+00 
 1.22621404e-05  8.68000250e+00  1.07499877e-07  0.00000000e+00 -3.31962949e+00 
 1.23621404e-05  8.68000250e+00  1.07499876e-07  0.00000000e+00 -3.31962949e+00 
 1.24621404e-05  8.68000250e+00  1.07499876e-07  0.00000000e+00 -3.31962949e+00 
 1.25621404e-05  8.68000250e+00  1.07499877e-07  0.00000000e+00 -3.31962949e+00 
 1.26621404e-05  8.68000250e+00  1.07499877e-07  0.00000000e+00 -3.31962949e+00 
 1.27621404e-05  8.68000250e+00  1.07499877e-07  0.00000000e+00 -3.31962949e+00 
 1.28621404e-05  8.68000250e+00  1.07499876e-07  0.00000000e+00 -3.31962949e+00 
 1.29621404e-05  8.68000250e+00  1.07499877e-07  0.00000000e+00 -3.31962949e+00 
 1.30621404e-05  8.68000250e+00  1.07499876e-07  0.00000000e+00 -3.31962949e+00 
 1.31621404e-05  8.68000250e+00  1.07499876e-07  0.00000000e+00 -3.31962949e+00 
 1.32621404e-05  8.68000250e+00  1.07499877e-07  0.00000000e+00 -3.31962949e+00 
 1.33621404e-05  8.68000250e+00  1.07499877e-07  0.00000000e+00 -3.31962949e+00 
 1.34621404e-05  8.68000250e+00  1.07499877e-07  0.00000000e+00 -3.31962949e+00 
 1.35621404e-05  8.68000250e+00  1.07499876e-07  0.00000000e+00 -3.31962949e+00 
 1.36621404e-05  8.68000250e+00  1.07499877e-07  0.00000000e+00 -3.31962949e+00 
 1.37621404e-05  8.68000250e+00  1.07499876e-07  0.00000000e+00 -3.31962949e+00 
 1.38621404e-05  8.68000250e+00  1.07499876e-07  0.00000000e+00 -3.31962949e+00 
 1.39621404e-05  8.68000250e+00  1.07499877e-07  0.00000000e+00 -3.31962949e+00 
 1.40621404e-05  8.68000250e+00  1.07499877e-07  0.00000000e+00 -3.31962949e+00 
 1.41621404e-05  8.68000250e+00  1.07499877e-07  0.00000000e+00 -3.31962949e+00 
 1.42621404e-05  8.68000250e+00  1.07499876e-07  0.00000000e+00 -3.31962949e+00 
 1.43621404e-05  8.68000250e+00  1.07499877e-07  0.00000000e+00 -3.31962949e+00 
 1.44621404e-05  8.68000250e+00  1.07499876e-07  0.00000000e+00 -3.31962949e+00 
 1.45621404e-05  8.68000250e+00  1.07499876e-07  0.00000000e+00 -3.31962949e+00 
 1.46621404e-05  8.68000250e+00  1.07499877e-07  0.00000000e+00 -3.31962949e+00 
 1.47621404e-05  8.68000250e+00  1.07499877e-07  0.00000000e+00 -3.31962949e+00 
 1.48621404e-05  8.68000250e+00  1.07499877e-07  0.00000000e+00 -3.31962949e+00 
 1.49621404e-05  8.68000250e+00  1.07499876e-07  0.00000000e+00 -3.31962949e+00 
 1.50621404e-05  8.68000250e+00  1.07499877e-07  0.00000000e+00 -3.31962949e+00 
 1.51621404e-05  8.68000250e+00  1.07499876e-07  0.00000000e+00 -3.31962949e+00 
 1.52621404e-05  8.68000250e+00  1.07499876e-07  0.00000000e+00 -3.31962949e+00 
 1.53621404e-05  8.68000250e+00  1.07499877e-07  0.00000000e+00 -3.31962949e+00 
 1.54621404e-05  8.68000250e+00  1.07499877e-07  0.00000000e+00 -3.31962949e+00 
 1.55621404e-05  8.68000250e+00  1.07499877e-07  0.00000000e+00 -3.31962949e+00 
 1.56621404e-05  8.68000250e+00  1.07499876e-07  0.00000000e+00 -3.31962949e+00 
 1.57621404e-05  8.68000250e+00  1.07499877e-07  0.00000000e+00 -3.31962949e+00 
 1.58621404e-05  8.68000250e+00  1.07499876e-07  0.00000000e+00 -3.31962949e+00 
 1.59621404e-05  8.68000250e+00  1.07499876e-07  0.00000000e+00 -3.31962949e+00 
 1.60621404e-05  8.68000250e+00  1.07499877e-07  0.00000000e+00 -3.31962949e+00 
 1.61621404e-05  8.68000250e+00  1.07499877e-07  0.00000000e+00 -3.31962949e+00 
 1.62621404e-05  8.68000250e+00  1.07499877e-07  0.00000000e+00 -3.31962949e+00 
 1.63621404e-05  8.68000250e+00  1.07499876e-07  0.00000000e+00 -3.31962949e+00 
 1.64621404e-05  8.68000250e+00  1.07499877e-07  0.00000000e+00 -3.31962949e+00 
 1.65621404e-05  8.68000250e+00  1.07499876e-07  0.00000000e+00 -3.31962949e+00 
 1.66621404e-05  8.68000250e+00  1.07499876e-07  0.00000000e+00 -3.31962949e+00 
 1.67621404e-05  8.68000250e+00  1.07499877e-07  0.00000000e+00 -3.31962949e+00 
 1.68621404e-05  8.68000250e+00  1.07499877e-07  0.00000000e+00 -3.31962949e+00 
 1.69621404e-05  8.68000250e+00  1.07499877e-07  0.00000000e+00 -3.31962949e+00 
 1.70621404e-05  8.68000250e+00  1.07499876e-07  0.00000000e+00 -3.31962949e+00 
 1.71621404e-05  8.68000250e+00  1.07499877e-07  0.00000000e+00 -3.31962949e+00 
 1.72621404e-05  8.68000250e+00  1.07499876e-07  0.00000000e+00 -3.31962949e+00 
 1.73621404e-05  8.68000250e+00  1.07499876e-07  0.00000000e+00 -3.31962949e+00 
 1.74621404e-05  8.68000250e+00  1.07499877e-07  0.00000000e+00 -3.31962949e+00 
 1.75621404e-05  8.68000250e+00  1.07499877e-07  0.00000000e+00 -3.31962949e+00 
 1.76621404e-05  8.68000250e+00  1.07499877e-07  0.00000000e+00 -3.31962949e+00 
 1.77621404e-05  8.68000250e+00  1.07499876e-07  0.00000000e+00 -3.31962949e+00 
 1.78621404e-05  8.68000250e+00  1.07499877e-07  0.00000000e+00 -3.31962949e+00 
 1.79621404e-05  8.68000250e+00  1.07499876e-07  0.00000000e+00 -3.31962949e+00 
 1.80621404e-05  8.68000250e+00  1.07499876e-07  0.00000000e+00 -3.31962949e+00 
 1.81621404e-05  8.68000250e+00  1.07499877e-07  0.00000000e+00 -3.31962949e+00 
 1.82621404e-05  8.68000250e+00  1.07499877e-07  0.00000000e+00 -3.31962949e+00 
 1.83621404e-05  8.68000250e+00  1.07499877e-07  0.00000000e+00 -3.31962949e+00 
 1.84621404e-05  8.68000250e+00  1.07499876e-07  0.00000000e+00 -3.31962949e+00 
 1.85621404e-05  8.68000250e+00  1.07499877e-07  0.00000000e+00 -3.31962949e+00 
 1.86621404e-05  8.68000250e+00  1.07499876e-07  0.00000000e+00 -3.31962949e+00 
 1.87621404e-05  8.68000250e+00  1.07499876e-07  0.00000000e+00 -3.31962949e+00 
 1.88621404e-05  8.68000250e+00  1.07499877e-07  0.00000000e+00 -3.31962949e+00 
 1.89621404e-05  8.68000250e+00  1.07499877e-07  0.00000000e+00 -3.31962949e+00 
 1.90621404e-05  8.68000250e+00  1.07499877e-07  0.00000000e+00 -3.31962949e+00 
 1.91621404e-05  8.68000250e+00  1.07499876e-07  0.00000000e+00 -3.31962949e+00 
 1.92621404e-05  8.68000250e+00  1.07499877e-07  0.00000000e+00 -3.31962949e+00 
 1.93621404e-05  8.68000250e+00  1.07499876e-07  0.00000000e+00 -3.31962949e+00 
 1.94621404e-05  8.68000250e+00  1.07499876e-07  0.00000000e+00 -3.31962949e+00 
 1.95621404e-05  8.68000250e+00  1.07499877e-07  0.00000000e+00 -3.31962949e+00 
 1.96621404e-05  8.68000250e+00  1.07499877e-07  0.00000000e+00 -3.31962949e+00 
 1.97621404e-05  8.68000250e+00  1.07499877e-07  0.00000000e+00 -3.31962949e+00 
 1.98621404e-05  8.68000250e+00  1.07499876e-07  0.00000000e+00 -3.31962949e+00 
 1.99621404e-05  8.68000250e+00  1.07499877e-07  0.00000000e+00 -3.31962949e+00 
 2.00621404e-05  8.68000250e+00  1.07499876e-07  0.00000000e+00 -3.31962949e+00 
 2.01621404e-05  8.68000250e+00  1.07499876e-07  0.00000000e+00 -3.31962949e+00 
 2.02621404e-05  8.68000250e+00  1.07499877e-07  0.00000000e+00 -3.31962949e+00 
 2.03621404e-05  8.68000250e+00  1.07499877e-07  0.00000000e+00 -3.31962949e+00 
 2.04621404e-05  8.68000250e+00  1.07499877e-07  0.00000000e+00 -3.31962949e+00 
 2.05621404e-05  8.68000250e+00  1.07499876e-07  0.00000000e+00 -3.31962949e+00 
 2.06621404e-05  8.68000250e+00  1.07499877e-07  0.00000000e+00 -3.31962949e+00 
 2.07621404e-05  8.68000250e+00  1.07499876e-07  0.00000000e+00 -3.31962949e+00 
 2.08621404e-05  8.68000250e+00  1.07499876e-07  0.00000000e+00 -3.31962949e+00 
 2.09621404e-05  8.68000250e+00  1.07499877e-07  0.00000000e+00 -3.31962949e+00 
 2.10621404e-05  8.68000250e+00  1.07499877e-07  0.00000000e+00 -3.31962949e+00 
 2.11621404e-05  8.68000250e+00  1.07499877e-07  0.00000000e+00 -3.31962949e+00 
 2.12621404e-05  8.68000250e+00  1.07499876e-07  0.00000000e+00 -3.31962949e+00 
 2.13621404e-05  8.68000250e+00  1.07499877e-07  0.00000000e+00 -3.31962949e+00 
