 time            v(conn_pin)     v(mcu_pin)      v_am_rs#branch 
 5.00000000e-11  5.63822201e-04  5.58239616e-06  5.58239805e-07 
 1.00000000e-10  1.04915524e-03  1.59147953e-05  1.03324045e-06 
 2.00000000e-10  1.97131023e-03  4.72691879e-05  1.92404104e-06 
 4.00000000e-10  3.77822051e-03  1.59208853e-04  3.61901166e-06 
 8.00000000e-10  7.37526455e-03  5.75164461e-04  6.80010009e-06 
 1.60000000e-09  1.45152212e-02  2.09980244e-03  1.24154187e-05 
 3.20000000e-09  2.86079142e-02  7.39277417e-03  2.12151400e-05 
 5.00000000e-09  4.42355546e-02  1.60810117e-02  2.81545429e-05 
 5.32000000e-09  4.69865027e-02  1.79399566e-02  2.90465461e-05 
 5.96000000e-09  5.24794094e-02  2.17844379e-02  3.06949715e-05 
 7.24000000e-09  6.34252961e-02  2.99948178e-02  3.34304784e-05 
 9.80000000e-09  8.51976460e-02  4.79922523e-02  3.72053937e-05 
 1.48000000e-08  1.27479205e-01  8.65938353e-02  4.08853697e-05 
 1.98000000e-08  1.69612218e-01  1.27520566e-01  4.20916523e-05 
 2.48000000e-08  2.11692457e-01  1.69373533e-01  4.23189244e-05 
 2.98000000e-08  2.53751963e-01  2.11494173e-01  4.22577906e-05 
 3.48000000e-08  2.95787350e-01  2.53634058e-01  4.21532919e-05 
 3.98000000e-08  3.37780978e-01  2.95719104e-01  4.20618740e-05 
 4.48000000e-08  3.79711806e-01  3.37731309e-01  4.19804969e-05 
 4.98000000e-08  4.21559600e-01  3.79662997e-01  4.18966034e-05 
 5.48000000e-08  4.63306010e-01  4.21504286e-01  4.18017242e-05 
 5.98000000e-08  5.04934524e-01  4.63242201e-01  4.16923233e-05 
 6.48000000e-08  5.46430185e-01  5.04862357e-01  4.15678283e-05 
 6.98000000e-08  5.87779327e-01  5.46350372e-01  4.14289548e-05 
 7.48000000e-08  6.28969401e-01  5.87692601e-01  4.12767999e-05 
 7.98000000e-08  6.69988852e-01  6.28876381e-01  4.11124713e-05 
 8.48000000e-08  7.10827028e-01  6.69890048e-01  4.09369800e-05 
 8.98000000e-08  7.51474112e-01  7.10722880e-01  4.07512320e-05 
 9.48000000e-08  7.91921057e-01  7.51365011e-01  4.05560457e-05 
 9.98000000e-08  8.32159530e-01  7.91807361e-01  4.03521687e-05 
 1.04800000e-07  8.72181859e-01  8.32041570e-01  4.01402899e-05 
 1.09800000e-07  9.11980989e-01  8.72059942e-01  3.99210471e-05 
 1.14800000e-07  9.51550434e-01  9.11855401e-01  3.96950328e-05 
 1.19800000e-07  9.90884240e-01  9.51421442e-01  3.94627976e-05 
 1.24800000e-07  1.02997695e+00  9.90752094e-01  3.92248545e-05 
 1.29800000e-07  1.06882356e+00  1.02984188e+00  3.89816812e-05 
 1.34800000e-07  1.10741951e+00  1.06868579e+00  3.87337235e-05 
 1.39800000e-07  1.14576063e+00  1.10727923e+00  3.84813975e-05 
 1.44800000e-07  1.18384314e+00  1.14561804e+00  3.82250919e-05 
 1.49800000e-07  1.22166358e+00  1.18369841e+00  3.79651705e-05 
 1.54800000e-07  1.25921887e+00  1.22151689e+00  3.77019734e-05 
 1.59800000e-07  1.29650619e+00  1.25907037e+00  3.74358196e-05 
 1.64800000e-07  1.33352303e+00  1.29635602e+00  3.71670075e-05 
 1.69800000e-07  1.37026716e+00  1.33337134e+00  3.68958175e-05 
 1.74800000e-07  1.40673659e+00  1.37011408e+00  3.66225124e-05 
 1.79800000e-07  1.44292957e+00  1.40658223e+00  3.63473389e-05 
 1.84800000e-07  1.47884459e+00  1.44277406e+00  3.60705290e-05 
 1.89800000e-07  1.51448032e+00  1.47868802e+00  3.57923004e-05 
 1.94800000e-07  1.54983567e+00  1.51432281e+00  3.55128580e-05 
 1.99800000e-07  1.58490970e+00  1.54967731e+00  3.52323944e-05 
 2.04800000e-07  1.61970167e+00  1.58475058e+00  3.49510909e-05 
 2.09800000e-07  1.65421099e+00  1.61954187e+00  3.46691179e-05 
 2.14800000e-07  1.68843723e+00  1.65405059e+00  3.43866360e-05 
 2.19800000e-07  1.72238011e+00  1.68827632e+00  3.41037963e-05 
 2.24800000e-07  1.75603950e+00  1.72221876e+00  3.38207411e-05 
 2.29800000e-07  1.78941537e+00  1.75587776e+00  3.35376046e-05 
 2.34800000e-07  1.82250783e+00  1.78925332e+00  3.32545128e-05 
 2.39800000e-07  1.85531712e+00  1.82234553e+00  3.29715848e-05 
 2.44800000e-07  1.88784355e+00  1.85515462e+00  3.26889325e-05 
 2.49800000e-07  1.92008757e+00  1.88768091e+00  3.24066615e-05 
 2.54800000e-07  1.95204972e+00  1.91992485e+00  3.21248711e-05 
 2.59800000e-07  1.98373060e+00  1.95188695e+00  3.18436549e-05 
 2.64800000e-07  2.01513094e+00  1.98356783e+00  3.15631010e-05 
 2.69800000e-07  2.04625151e+00  2.01496822e+00  3.12832925e-05 
 2.74800000e-07  2.07709318e+00  2.04608888e+00  3.10043073e-05 
 2.79800000e-07  2.10765690e+00  2.07693068e+00  3.07262190e-05 
 2.84800000e-07  2.13794365e+00  2.10749456e+00  3.04490968e-05 
 2.89800000e-07  2.16795451e+00  2.13778151e+00  3.01730055e-05 
 2.94800000e-07  2.19769060e+00  2.16779260e+00  2.98980064e-05 
 2.99800000e-07  2.22715311e+00  2.19752895e+00  2.96241567e-05 
 3.04800000e-07  2.25634326e+00  2.22699174e+00  2.93515104e-05 
 3.09800000e-07  2.28526233e+00  2.25618221e+00  2.90801179e-05 
 3.14800000e-07  2.31391165e+00  2.28510162e+00  2.88100268e-05 
 3.19800000e-07  2.34229260e+00  2.31375132e+00  2.85412815e-05 
 3.24800000e-07  2.37040658e+00  2.34213265e+00  2.82739233e-05 
 3.29800000e-07  2.39825504e+00  2.37024705e+00  2.80079914e-05 
 3.34800000e-07  2.42583946e+00  2.39809594e+00  2.77435219e-05 
 3.39800000e-07  2.45316136e+00  2.42568081e+00  2.74805487e-05 
 3.44800000e-07  2.48022229e+00  2.45300318e+00  2.72191035e-05 
 3.49800000e-07  2.50702381e+00  2.48006460e+00  2.69592155e-05 
 3.54800000e-07  2.53356754e+00  2.50686663e+00  2.67009121e-05 
 3.59800000e-07  2.55985509e+00  2.53341087e+00  2.64442185e-05 
 3.64800000e-07  2.58588811e+00  2.55969895e+00  2.61891582e-05 
 3.69800000e-07  2.61166827e+00  2.58573252e+00  2.59357528e-05 
 3.74800000e-07  2.63719726e+00  2.61151324e+00  2.56840221e-05 
 3.79800000e-07  2.66247678e+00  2.63704280e+00  2.54339845e-05 
 3.84800000e-07  2.68750855e+00  2.66232290e+00  2.51856568e-05 
 3.89800000e-07  2.71229431e+00  2.68735526e+00  2.49390540e-05 
 3.94800000e-07  2.73683581e+00  2.71214162e+00  2.46941902e-05 
 3.99800000e-07  2.76113480e+00  2.73668372e+00  2.44510778e-05 
 4.04800000e-07  2.78519305e+00  2.76098333e+00  2.42097282e-05 
 4.09800000e-07  2.80901236e+00  2.78504221e+00  2.39701512e-05 
 4.14800000e-07  2.83259449e+00  2.80886214e+00  2.37323559e-05 
 4.19800000e-07  2.85594126e+00  2.83244491e+00  2.34963501e-05 
 4.24800000e-07  2.87905446e+00  2.85579232e+00  2.32621404e-05 
 4.29800000e-07  2.90193590e+00  2.87890617e+00  2.30297327e-05 
 4.34800000e-07  2.92458739e+00  2.90178826e+00  2.27991318e-05 
 4.39800000e-07  2.94701074e+00  2.92444040e+00  2.25703416e-05 
 4.44800000e-07  2.96920778e+00  2.94686442e+00  2.23433652e-05 
 4.49800000e-07  2.99118032e+00  2.96906212e+00  2.21182047e-05 
 4.54800000e-07  3.01293019e+00  2.99103532e+00  2.18948617e-05 
 4.59800000e-07  3.03445919e+00  3.01278586e+00  2.16733369e-05 
 4.64800000e-07  3.05576917e+00  3.03431554e+00  2.14536304e-05 
 4.69800000e-07  3.07686193e+00  3.05562618e+00  2.12357414e-05 
 4.74800000e-07  3.09773928e+00  3.07671962e+00  2.10196687e-05 
 4.79800000e-07  3.11840306e+00  3.09759765e+00  2.08054104e-05 
 4.84800000e-07  3.13885507e+00  3.11826210e+00  2.05929640e-05 
 4.89800000e-07  3.15909712e+00  3.13871479e+00  2.03823266e-05 
 4.94800000e-07  3.17913101e+00  3.15895752e+00  2.01734946e-05 
 4.99800000e-07  3.19895855e+00  3.17899209e+00  1.99664639e-05 
 5.04800000e-07  3.21858154e+00  3.19882031e+00  1.97612302e-05 
 5.09800000e-07  3.23800176e+00  3.21844397e+00  1.95577884e-05 
 5.14800000e-07  3.25722100e+00  3.23786487e+00  1.93561332e-05 
 5.19800000e-07  3.27624105e+00  3.25708479e+00  1.91562588e-05 
 5.24800000e-07  3.29506367e+00  3.27610551e+00  1.89581591e-05 
 5.29800000e-07  3.31369063e+00  3.29492881e+00  1.87618275e-05 
 5.34800000e-07  3.33212370e+00  3.31355644e+00  1.85672573e-05 
 5.39800000e-07  3.35036462e+00  3.33199018e+00  1.83744413e-05 
 5.44800000e-07  3.36841515e+00  3.35023178e+00  1.81833719e-05 
 5.49800000e-07  3.38627701e+00  3.36828297e+00  1.79940415e-05 
 5.54800000e-07  3.40395194e+00  3.38614549e+00  1.78064420e-05 
 5.59800000e-07  3.42144165e+00  3.40382108e+00  1.76205650e-05 
 5.64800000e-07  3.43874786e+00  3.42131146e+00  1.74364022e-05 
 5.69800000e-07  3.45587228e+00  3.43861833e+00  1.72539446e-05 
 5.74800000e-07  3.47281659e+00  3.45574340e+00  1.70731833e-05 
 5.79800000e-07  3.48958247e+00  3.47268837e+00  1.68941091e-05 
 5.84800000e-07  3.50617162e+00  3.48945491e+00  1.67167127e-05 
 5.89800000e-07  3.52258568e+00  3.50604470e+00  1.65409845e-05 
 5.94800000e-07  3.53882632e+00  3.52245941e+00  1.63669148e-05 
 5.99800000e-07  3.55489518e+00  3.53870069e+00  1.61944936e-05 
 6.04800000e-07  3.57079390e+00  3.55477019e+00  1.60237111e-05 
 6.09800000e-07  3.58652410e+00  3.57066954e+00  1.58545569e-05 
 6.14800000e-07  3.60208739e+00  3.58640037e+00  1.56870209e-05 
 6.19800000e-07  3.61748539e+00  3.60196430e+00  1.55210925e-05 
 6.24800000e-07  3.63271968e+00  3.61736292e+00  1.53567614e-05 
 6.29800000e-07  3.64779185e+00  3.63259783e+00  1.51940169e-05 
 6.34800000e-07  3.66270347e+00  3.64767062e+00  1.50328482e-05 
 6.39800000e-07  3.67745610e+00  3.66258285e+00  1.48732447e-05 
 6.44800000e-07  3.69205129e+00  3.67733609e+00  1.47151954e-05 
 6.49800000e-07  3.70649058e+00  3.69193189e+00  1.45586893e-05 
 6.54800000e-07  3.72077550e+00  3.70637179e+00  1.44037156e-05 
 6.59800000e-07  3.73490757e+00  3.72065731e+00  1.42502631e-05 
 6.64800000e-07  3.74888830e+00  3.73478998e+00  1.40983207e-05 
 6.69800000e-07  3.76271917e+00  3.74877129e+00  1.39478772e-05 
 6.74800000e-07  3.77640167e+00  3.76260275e+00  1.37989216e-05 
 6.79800000e-07  3.78993728e+00  3.77628584e+00  1.36514425e-05 
 6.84800000e-07  3.80332746e+00  3.78982203e+00  1.35054287e-05 
 6.89800000e-07  3.81657365e+00  3.80321278e+00  1.33608689e-05 
 6.94800000e-07  3.82967730e+00  3.81645955e+00  1.32177518e-05 
 6.99800000e-07  3.84263983e+00  3.82956376e+00  1.30760661e-05 
 7.04800000e-07  3.85546266e+00  3.84252686e+00  1.29358006e-05 
 7.09800000e-07  3.86814719e+00  3.85535025e+00  1.27969438e-05 
 7.14800000e-07  3.88069482e+00  3.86803533e+00  1.26594844e-05 
 7.19800000e-07  3.89310692e+00  3.88058351e+00  1.25234112e-05 
 7.24800000e-07  3.90538488e+00  3.89299616e+00  1.23887127e-05 
 7.29800000e-07  3.91753004e+00  3.90527466e+00  1.22553778e-05 
 7.34800000e-07  3.92954376e+00  3.91742036e+00  1.21233950e-05 
 7.39800000e-07  3.94142737e+00  3.92943462e+00  1.19927532e-05 
 7.44800000e-07  3.95318220e+00  3.94131876e+00  1.18634410e-05 
 7.49800000e-07  3.96480956e+00  3.95307412e+00  1.17354473e-05 
 7.54800000e-07  3.97631076e+00  3.96470200e+00  1.16087608e-05 
 7.59800000e-07  3.98768709e+00  3.97620372e+00  1.14833703e-05 
 7.64800000e-07  3.99893982e+00  3.98758056e+00  1.13592646e-05 
 7.69800000e-07  4.01007023e+00  3.99883380e+00  1.12364327e-05 
 7.74800000e-07  4.02107958e+00  4.00996472e+00  1.11148635e-05 
 7.79800000e-07  4.03196911e+00  4.02097457e+00  1.09945459e-05 
 7.84800000e-07  4.04274006e+00  4.03186459e+00  1.08754689e-05 
 7.89800000e-07  4.05339366e+00  4.04263604e+00  1.07576216e-05 
 7.94800000e-07  4.06393112e+00  4.05329013e+00  1.06409929e-05 
 7.99800000e-07  4.07435364e+00  4.06382807e+00  1.05255721e-05 
 8.04800000e-07  4.08466242e+00  4.07425107e+00  1.04113483e-05 
 8.09800000e-07  4.09485863e+00  4.08456032e+00  1.02983106e-05 
 8.14800000e-07  4.10494346e+00  4.09475701e+00  1.01864485e-05 
 8.19800000e-07  4.11491806e+00  4.10484231e+00  1.00757511e-05 
 8.24800000e-07  4.12478358e+00  4.11481737e+00  9.96620793e-06 
 8.29800000e-07  4.13454115e+00  4.12468335e+00  9.85780830e-06 
 8.34800000e-07  4.14419192e+00  4.13444138e+00  9.75054172e-06 
 8.39800000e-07  4.15373700e+00  4.14409260e+00  9.64439773e-06 
 8.44800000e-07  4.16317749e+00  4.15363813e+00  9.53936590e-06 
 8.49800000e-07  4.17251450e+00  4.16307906e+00  9.43543590e-06 
 8.54800000e-07  4.18174910e+00  4.17241651e+00  9.33259743e-06 
 8.59800000e-07  4.19088239e+00  4.18165155e+00  9.23084025e-06 
 8.64800000e-07  4.19991542e+00  4.19078527e+00  9.13015419e-06 
 8.69800000e-07  4.20884926e+00  4.19981873e+00  9.03052915e-06 
 8.74800000e-07  4.21768494e+00  4.20875299e+00  8.93195508e-06 
 8.79800000e-07  4.22642352e+00  4.21758909e+00  8.83442199e-06 
 8.84800000e-07  4.23506600e+00  4.22632808e+00  8.73791996e-06 
 8.89800000e-07  4.24361342e+00  4.23497098e+00  8.64243915e-06 
 8.94800000e-07  4.25206678e+00  4.24351881e+00  8.54796975e-06 
 8.99800000e-07  4.26042707e+00  4.25197257e+00  8.45450205e-06 
 9.04800000e-07  4.26869529e+00  4.26033327e+00  8.36202639e-06 
 9.09800000e-07  4.27687242e+00  4.26860188e+00  8.27053317e-06 
 9.14800000e-07  4.28495942e+00  4.27677940e+00  8.18001287e-06 
 9.19800000e-07  4.29295725e+00  4.28486679e+00  8.09045603e-06 
 9.24800000e-07  4.30086686e+00  4.29286501e+00  8.00185327e-06 
 9.29800000e-07  4.30868920e+00  4.30077500e+00  7.91419526e-06 
 9.34800000e-07  4.31642520e+00  4.30859772e+00  7.82747275e-06 
 9.39800000e-07  4.32407577e+00  4.31633409e+00  7.74167654e-06 
 9.44800000e-07  4.33164184e+00  4.32398504e+00  7.65679754e-06 
 9.49800000e-07  4.33912430e+00  4.33155147e+00  7.57282667e-06 
 9.54800000e-07  4.34652406e+00  4.33903430e+00  7.48975498e-06 
 9.59800000e-07  4.35384199e+00  4.34643442e+00  7.40757354e-06 
 9.64800000e-07  4.36107899e+00  4.35375271e+00  7.32627351e-06 
 9.69800000e-07  4.36823591e+00  4.36099006e+00  7.24584612e-06 
 9.74800000e-07  4.37531362e+00  4.36814733e+00  7.16628268e-06 
 9.79800000e-07  4.38231296e+00  4.37522539e+00  7.08757453e-06 
 9.84800000e-07  4.38923479e+00  4.38222508e+00  7.00971312e-06 
 9.89800000e-07  4.39607994e+00  4.38914725e+00  6.93268996e-06 
 9.94800000e-07  4.40284923e+00  4.39599273e+00  6.85649660e-06 
 9.99800000e-07  4.40954348e+00  4.40276236e+00  6.78112471e-06 
 1.00480000e-06  4.41616351e+00  4.40945694e+00  6.70656597e-06 
 1.00980000e-06  4.42271010e+00  4.41607729e+00  6.63281218e-06 
 1.01480000e-06  4.42918407e+00  4.42262421e+00  6.55985519e-06 
 1.01980000e-06  4.43558619e+00  4.42909850e+00  6.48768690e-06 
 1.02480000e-06  4.44191723e+00  4.43550093e+00  6.41629930e-06 
 1.02980000e-06  4.44817798e+00  4.44183229e+00  6.34568444e-06 
 1.03480000e-06  4.45436919e+00  4.44809335e+00  6.27583445e-06 
 1.03980000e-06  4.46049161e+00  4.45428487e+00  6.20674151e-06 
 1.04480000e-06  4.46654599e+00  4.46040759e+00  6.13839788e-06 
 1.04980000e-06  4.47253307e+00  4.46646228e+00  6.07079588e-06 
 1.05480000e-06  4.47845359e+00  4.47244966e+00  6.00392789e-06 
 1.05980000e-06  4.48430826e+00  4.47837047e+00  5.93778638e-06 
 1.06480000e-06  4.49009780e+00  4.48422543e+00  5.87236387e-06 
 1.06980000e-06  4.49582292e+00  4.49001526e+00  5.80765295e-06 
 1.07480000e-06  4.50148431e+00  4.49574067e+00  5.74364626e-06 
 1.07980000e-06  4.50708269e+00  4.50140235e+00  5.68033654e-06 
 1.08480000e-06  4.51261872e+00  4.50700100e+00  5.61771657e-06 
 1.08980000e-06  4.51809310e+00  4.51253732e+00  5.55577919e-06 
 1.09480000e-06  4.52350648e+00  4.51801197e+00  5.49451733e-06 
 1.09980000e-06  4.52885955e+00  4.52342563e+00  5.43392396e-06 
 1.10480000e-06  4.53415296e+00  4.52877896e+00  5.37399214e-06 
 1.10980000e-06  4.53938735e+00  4.53407264e+00  5.31471495e-06 
 1.11480000e-06  4.54456338e+00  4.53930730e+00  5.25608559e-06 
 1.11980000e-06  4.54968169e+00  4.54448359e+00  5.19809728e-06 
 1.12480000e-06  4.55474289e+00  4.54960215e+00  5.14074331e-06 
 1.12980000e-06  4.55974763e+00  4.55466362e+00  5.08401706e-06 
 1.13480000e-06  4.56469652e+00  4.55966861e+00  5.02791193e-06 
 1.13980000e-06  4.56959017e+00  4.56461775e+00  4.97242141e-06 
 1.14480000e-06  4.57442918e+00  4.56951164e+00  4.91753905e-06 
 1.14980000e-06  4.57921416e+00  4.57435090e+00  4.86325845e-06 
 1.15480000e-06  4.58394569e+00  4.57913612e+00  4.80957328e-06 
 1.15980000e-06  4.58862438e+00  4.58386790e+00  4.75647725e-06 
 1.16480000e-06  4.59325078e+00  4.58854682e+00  4.70396417e-06 
 1.16980000e-06  4.59782549e+00  4.59317346e+00  4.65202786e-06 
 1.17480000e-06  4.60234906e+00  4.59774840e+00  4.60066223e-06 
 1.17980000e-06  4.60682206e+00  4.60227220e+00  4.54986125e-06 
 1.18480000e-06  4.61124505e+00  4.60674543e+00  4.49961893e-06 
 1.18980000e-06  4.61561858e+00  4.61116865e+00  4.44992936e-06 
 1.19480000e-06  4.61994318e+00  4.61554240e+00  4.40078666e-06 
 1.19980000e-06  4.62421941e+00  4.61986722e+00  4.35218503e-06 
 1.20480000e-06  4.62844779e+00  4.62414367e+00  4.30411871e-06 
 1.20980000e-06  4.63262884e+00  4.62837226e+00  4.25658201e-06 
 1.21480000e-06  4.63676310e+00  4.63255353e+00  4.20956929e-06 
 1.21980000e-06  4.64085108e+00  4.63668801e+00  4.16307497e-06 
 1.22480000e-06  4.64489329e+00  4.64077619e+00  4.11709351e-06 
 1.22980000e-06  4.64889023e+00  4.64481861e+00  4.07161943e-06 
 1.23480000e-06  4.65284240e+00  4.64881575e+00  4.02664732e-06 
 1.23980000e-06  4.65675030e+00  4.65276813e+00  3.98217181e-06 
 1.24480000e-06  4.66061442e+00  4.65667623e+00  3.93818758e-06 
 1.24980000e-06  4.66443523e+00  4.66054054e+00  3.89468937e-06 
 1.25480000e-06  4.66821323e+00  4.66436156e+00  3.85167197e-06 
 1.25980000e-06  4.67194888e+00  4.66813975e+00  3.80913022e-06 
 1.26480000e-06  4.67564265e+00  4.67187559e+00  3.76705901e-06 
 1.26980000e-06  4.67929501e+00  4.67556956e+00  3.72545329e-06 
 1.27480000e-06  4.68290641e+00  4.67922210e+00  3.68430805e-06 
 1.27980000e-06  4.68647731e+00  4.68283369e+00  3.64361834e-06 
 1.28480000e-06  4.69000815e+00  4.68640477e+00  3.60337926e-06 
 1.28980000e-06  4.69349938e+00  4.68993579e+00  3.56358594e-06 
 1.29480000e-06  4.69695144e+00  4.69342721e+00  3.52423359e-06 
 1.29980000e-06  4.70036476e+00  4.69687945e+00  3.48531743e-06 
 1.30480000e-06  4.70373978e+00  4.70029294e+00  3.44683277e-06 
 1.30980000e-06  4.70707691e+00  4.70366813e+00  3.40877495e-06 
 1.31480000e-06  4.71037658e+00  4.70700544e+00  3.37113934e-06 
 1.31980000e-06  4.71363920e+00  4.71030528e+00  3.33392138e-06 
 1.32480000e-06  4.71686519e+00  4.71356807e+00  3.29711655e-06 
 1.32980000e-06  4.72005495e+00  4.71679423e+00  3.26072037e-06 
 1.33480000e-06  4.72320888e+00  4.71998415e+00  3.22472842e-06 
 1.33980000e-06  4.72632738e+00  4.72313824e+00  3.18913630e-06 
 1.34480000e-06  4.72941085e+00  4.72625691e+00  3.15393970e-06 
 1.34980000e-06  4.73245967e+00  4.72934054e+00  3.11913430e-06 
 1.35480000e-06  4.73547424e+00  4.73238952e+00  3.08471586e-06 
 1.35980000e-06  4.73845492e+00  4.73540424e+00  3.05068017e-06 
 1.36480000e-06  4.74140211e+00  4.73838509e+00  3.01702307e-06 
 1.36980000e-06  4.74431616e+00  4.74133242e+00  2.98374044e-06 
 1.37480000e-06  4.74719746e+00  4.74424663e+00  2.95082821e-06 
 1.37980000e-06  4.75004636e+00  4.74712808e+00  2.91828233e-06 
 1.38480000e-06  4.75286322e+00  4.74997712e+00  2.88609882e-06 
 1.38980000e-06  4.75564841e+00  4.75279413e+00  2.85427372e-06 
 1.39480000e-06  4.75840227e+00  4.75557947e+00  2.82280313e-06 
 1.39980000e-06  4.76112515e+00  4.75833347e+00  2.79168317e-06 
 1.40480000e-06  4.76381741e+00  4.76105650e+00  2.76091002e-06 
 1.40980000e-06  4.76647937e+00  4.76374889e+00  2.73047988e-06 
 1.41480000e-06  4.76911139e+00  4.76641100e+00  2.70038900e-06 
 1.41980000e-06  4.77171378e+00  4.76904315e+00  2.67063368e-06 
 1.42480000e-06  4.77428689e+00  4.77164568e+00  2.64121025e-06 
 1.42980000e-06  4.77683104e+00  4.77421892e+00  2.61211506e-06 
 1.43480000e-06  4.77934655e+00  4.77676320e+00  2.58334453e-06 
 1.43980000e-06  4.78183374e+00  4.77927885e+00  2.55489509e-06 
 1.44480000e-06  4.78429293e+00  4.78176617e+00  2.52676323e-06 
 1.44980000e-06  4.78672443e+00  4.78422549e+00  2.49894547e-06 
 1.45480000e-06  4.78912856e+00  4.78665712e+00  2.47143836e-06 
 1.45980000e-06  4.79150561e+00  4.78906137e+00  2.44423848e-06 
 1.46480000e-06  4.79385589e+00  4.79143854e+00  2.41734247e-06 
 1.46980000e-06  4.79617969e+00  4.79378894e+00  2.39074699e-06 
 1.47480000e-06  4.79847732e+00  4.79611287e+00  2.36444873e-06 
 1.47980000e-06  4.80074907e+00  4.79841062e+00  2.33844443e-06 
