 time            v(conn_pin)     v(gate)         v(gate_drive)  
 5.00000000e-11  2.50236052e-02  6.37111205e-02  3.30000000e+00 
 7.90459266e-11  3.83909590e-02  9.80719361e-02  3.30000000e+00 
 1.37137780e-10  6.43322561e-02  1.65791845e-01  3.30000000e+00 
 2.45101180e-10  1.10899141e-01  2.88007358e-01  3.30000000e+00 
 4.61027979e-10  1.99958406e-01  5.18815434e-01  3.30000000e+00 
 7.72106614e-10  3.16987085e-01  8.21217430e-01  3.30000000e+00 
 9.99703394e-10  1.86000738e-01  9.88415514e-01  3.30000000e+00 
 1.20540865e-09  5.14338306e-02  1.12450666e+00  3.30000000e+00 
 1.38770244e-09  1.32781620e-02  1.25007959e+00  3.30000000e+00 
 1.53943495e-09  8.03266429e-03  1.35354287e+00  3.30000000e+00 
 1.70362804e-09  7.71941183e-03  1.46060233e+00  3.30000000e+00 
 1.86815662e-09  7.13286652e-03  1.56195122e+00  3.30000000e+00 
 2.09113139e-09  6.06808845e-03  1.69043601e+00  3.30000000e+00 
 2.53708094e-09  4.52646210e-03  1.92024549e+00  3.30000000e+00 
 3.26933578e-09  3.05737070e-03  2.23104518e+00  3.30000000e+00 
 4.73384548e-09  1.52727157e-03  2.67021425e+00  3.30000000e+00 
 5.00000000e-09  1.47269784e-03  2.72641790e+00  3.30000000e+00 
 5.29290194e-09  1.33341212e-03  2.77895492e+00  3.30000000e+00 
 5.87870582e-09  1.08095179e-03  2.87268645e+00  3.30000000e+00 
 7.05031358e-09  7.11196160e-04  3.01632153e+00  3.30000000e+00 
 9.39352910e-09  2.93585271e-04  3.18627466e+00  3.30000000e+00 
 1.40799601e-08 -6.72040988e-06  3.31130001e+00  3.30000000e+00 
 1.90799601e-08 -2.88342073e-05  3.32656120e+00  3.30000000e+00 
 2.40799601e-08  3.53295537e-06  3.31473702e+00  3.30000000e+00 
 2.90799601e-08  2.57653896e-05  3.30502682e+00  3.30000000e+00 
 3.40799601e-08  3.53119881e-05  3.30083354e+00  3.30000000e+00 
 3.90799601e-08  3.78182170e-05  3.29973728e+00  3.30000000e+00 
 4.40799601e-08  3.78887460e-05  3.29970751e+00  3.30000000e+00 
 4.90799601e-08  3.75432104e-05  3.29985918e+00  3.30000000e+00 
 5.40799601e-08  3.73179423e-05  3.29995797e+00  3.30000000e+00 
 5.90799601e-08  3.72317624e-05  3.29999576e+00  3.30000000e+00 
 6.40799601e-08  3.72132236e-05  3.30000389e+00  3.30000000e+00 
 6.90799601e-08  3.72150895e-05  3.30000307e+00  3.30000000e+00 
 7.40799601e-08  3.72191256e-05  3.30000130e+00  3.30000000e+00 
 7.90799601e-08  3.72213418e-05  3.30000033e+00  3.30000000e+00 
 8.40799601e-08  3.72220913e-05  3.30000000e+00  3.30000000e+00 
 8.90799601e-08  3.72222126e-05  3.29999995e+00  3.30000000e+00 
 9.40799601e-08  3.72221716e-05  3.29999997e+00  3.30000000e+00 
 9.90799601e-08  3.72221274e-05  3.29999999e+00  3.30000000e+00 
 1.04079960e-07  3.72221062e-05  3.30000000e+00  3.30000000e+00 
 1.09079960e-07  3.72221000e-05  3.30000000e+00  3.30000000e+00 
 1.14079960e-07  3.72220994e-05  3.30000000e+00  3.30000000e+00 
 1.19079960e-07  3.72221000e-05  3.30000000e+00  3.30000000e+00 
 1.24079960e-07  3.72221004e-05  3.30000000e+00  3.30000000e+00 
 1.29079960e-07  3.72221006e-05  3.30000000e+00  3.30000000e+00 
 1.34079960e-07  3.72221007e-05  3.30000000e+00  3.30000000e+00 
 1.39079960e-07  3.72221007e-05  3.30000000e+00  3.30000000e+00 
 1.44079960e-07  3.72221007e-05  3.30000000e+00  3.30000000e+00 
 1.49079960e-07  3.72221007e-05  3.30000000e+00  3.30000000e+00 
 1.54079960e-07  3.72221007e-05  3.30000000e+00  3.30000000e+00 
 1.59079960e-07  3.72221007e-05  3.30000000e+00  3.30000000e+00 
 1.64079960e-07  3.72221007e-05  3.30000000e+00  3.30000000e+00 
 1.69079960e-07  3.72221007e-05  3.30000000e+00  3.30000000e+00 
 1.74079960e-07  3.72221007e-05  3.30000000e+00  3.30000000e+00 
 1.79079960e-07  3.72221007e-05  3.30000000e+00  3.30000000e+00 
 1.84079960e-07  3.72221007e-05  3.30000000e+00  3.30000000e+00 
 1.89079960e-07  3.72221007e-05  3.30000000e+00  3.30000000e+00 
 1.94079960e-07  3.72221007e-05  3.30000000e+00  3.30000000e+00 
 1.99079960e-07  3.72221007e-05  3.30000000e+00  3.30000000e+00 
 2.04079960e-07  3.72221007e-05  3.30000000e+00  3.30000000e+00 
 2.09079960e-07  3.72221007e-05  3.30000000e+00  3.30000000e+00 
 2.14079960e-07  3.72221007e-05  3.30000000e+00  3.30000000e+00 
 2.19079960e-07  3.72221007e-05  3.30000000e+00  3.30000000e+00 
 2.24079960e-07  3.72221007e-05  3.30000000e+00  3.30000000e+00 
 2.29079960e-07  3.72221007e-05  3.30000000e+00  3.30000000e+00 
 2.34079960e-07  3.72221007e-05  3.30000000e+00  3.30000000e+00 
 2.39079960e-07  3.72221007e-05  3.30000000e+00  3.30000000e+00 
 2.44079960e-07  3.72221007e-05  3.30000000e+00  3.30000000e+00 
 2.49079960e-07  3.72221007e-05  3.30000000e+00  3.30000000e+00 
 2.54079960e-07  3.72221007e-05  3.30000000e+00  3.30000000e+00 
 2.59079960e-07  3.72221007e-05  3.30000000e+00  3.30000000e+00 
 2.64079960e-07  3.72221007e-05  3.30000000e+00  3.30000000e+00 
 2.69079960e-07  3.72221007e-05  3.30000000e+00  3.30000000e+00 
 2.74079960e-07  3.72221007e-05  3.30000000e+00  3.30000000e+00 
 2.79079960e-07  3.72221007e-05  3.30000000e+00  3.30000000e+00 
 2.84079960e-07  3.72221007e-05  3.30000000e+00  3.30000000e+00 
 2.89079960e-07  3.72221007e-05  3.30000000e+00  3.30000000e+00 
 2.94079960e-07  3.72221007e-05  3.30000000e+00  3.30000000e+00 
 2.99079960e-07  3.72221007e-05  3.30000000e+00  3.30000000e+00 
 3.04079960e-07  3.72221007e-05  3.30000000e+00  3.30000000e+00 
 3.09079960e-07  3.72221007e-05  3.30000000e+00  3.30000000e+00 
 3.14079960e-07  3.72221007e-05  3.30000000e+00  3.30000000e+00 
 3.19079960e-07  3.72221007e-05  3.30000000e+00  3.30000000e+00 
 3.24079960e-07  3.72221007e-05  3.30000000e+00  3.30000000e+00 
 3.29079960e-07  3.72221007e-05  3.30000000e+00  3.30000000e+00 
 3.34079960e-07  3.72221007e-05  3.30000000e+00  3.30000000e+00 
 3.39079960e-07  3.72221007e-05  3.30000000e+00  3.30000000e+00 
 3.44079960e-07  3.72221007e-05  3.30000000e+00  3.30000000e+00 
 3.49079960e-07  3.72221007e-05  3.30000000e+00  3.30000000e+00 
 3.54079960e-07  3.72221007e-05  3.30000000e+00  3.30000000e+00 
 3.59079960e-07  3.72221007e-05  3.30000000e+00  3.30000000e+00 
 3.64079960e-07  3.72221007e-05  3.30000000e+00  3.30000000e+00 
 3.69079960e-07  3.72221007e-05  3.30000000e+00  3.30000000e+00 
 3.74079960e-07  3.72221007e-05  3.30000000e+00  3.30000000e+00 
 3.79079960e-07  3.72221007e-05  3.30000000e+00  3.30000000e+00 
 3.84079960e-07  3.72221007e-05  3.30000000e+00  3.30000000e+00 
 3.89079960e-07  3.72221007e-05  3.30000000e+00  3.30000000e+00 
 3.94079960e-07  3.72221007e-05  3.30000000e+00  3.30000000e+00 
 3.99079960e-07  3.72221007e-05  3.30000000e+00  3.30000000e+00 
 4.04079960e-07  3.72221007e-05  3.30000000e+00  3.30000000e+00 
 4.09079960e-07  3.72221007e-05  3.30000000e+00  3.30000000e+00 
 4.14079960e-07  3.72221007e-05  3.30000000e+00  3.30000000e+00 
 4.19079960e-07  3.72221007e-05  3.30000000e+00  3.30000000e+00 
 4.24079960e-07  3.72221007e-05  3.30000000e+00  3.30000000e+00 
 4.29079960e-07  3.72221007e-05  3.30000000e+00  3.30000000e+00 
 4.34079960e-07  3.72221007e-05  3.30000000e+00  3.30000000e+00 
 4.39079960e-07  3.72221007e-05  3.30000000e+00  3.30000000e+00 
 4.44079960e-07  3.72221007e-05  3.30000000e+00  3.30000000e+00 
 4.49079960e-07  3.72221007e-05  3.30000000e+00  3.30000000e+00 
 4.54079960e-07  3.72221007e-05  3.30000000e+00  3.30000000e+00 
 4.59079960e-07  3.72221007e-05  3.30000000e+00  3.30000000e+00 
 4.64079960e-07  3.72221007e-05  3.30000000e+00  3.30000000e+00 
 4.69079960e-07  3.72221007e-05  3.30000000e+00  3.30000000e+00 
 4.74079960e-07  3.72221007e-05  3.30000000e+00  3.30000000e+00 
 4.79079960e-07  3.72221007e-05  3.30000000e+00  3.30000000e+00 
 4.84079960e-07  3.72221007e-05  3.30000000e+00  3.30000000e+00 
 4.89079960e-07  3.72221007e-05  3.30000000e+00  3.30000000e+00 
 4.94079960e-07  3.72221007e-05  3.30000000e+00  3.30000000e+00 
 4.99079960e-07  3.72221007e-05  3.30000000e+00  3.30000000e+00 
 5.04079960e-07  3.72221007e-05  3.30000000e+00  3.30000000e+00 
 5.09079960e-07  3.72221007e-05  3.30000000e+00  3.30000000e+00 
 5.14079960e-07  3.72221007e-05  3.30000000e+00  3.30000000e+00 
 5.19079960e-07  3.72221007e-05  3.30000000e+00  3.30000000e+00 
 5.24079960e-07  3.72221007e-05  3.30000000e+00  3.30000000e+00 
 5.29079960e-07  3.72221007e-05  3.30000000e+00  3.30000000e+00 
 5.34079960e-07  3.72221007e-05  3.30000000e+00  3.30000000e+00 
 5.39079960e-07  3.72221007e-05  3.30000000e+00  3.30000000e+00 
 5.44079960e-07  3.72221007e-05  3.30000000e+00  3.30000000e+00 
 5.49079960e-07  3.72221007e-05  3.30000000e+00  3.30000000e+00 
 5.54079960e-07  3.72221007e-05  3.30000000e+00  3.30000000e+00 
 5.59079960e-07  3.72221007e-05  3.30000000e+00  3.30000000e+00 
 5.64079960e-07  3.72221007e-05  3.30000000e+00  3.30000000e+00 
 5.69079960e-07  3.72221007e-05  3.30000000e+00  3.30000000e+00 
 5.74079960e-07  3.72221007e-05  3.30000000e+00  3.30000000e+00 
 5.79079960e-07  3.72221007e-05  3.30000000e+00  3.30000000e+00 
 5.84079960e-07  3.72221007e-05  3.30000000e+00  3.30000000e+00 
 5.89079960e-07  3.72221007e-05  3.30000000e+00  3.30000000e+00 
 5.94079960e-07  3.72221007e-05  3.30000000e+00  3.30000000e+00 
 5.99079960e-07  3.72221007e-05  3.30000000e+00  3.30000000e+00 
 6.04079960e-07  3.72221007e-05  3.30000000e+00  3.30000000e+00 
 6.09079960e-07  3.72221007e-05  3.30000000e+00  3.30000000e+00 
 6.14079960e-07  3.72221007e-05  3.30000000e+00  3.30000000e+00 
 6.19079960e-07  3.72221007e-05  3.30000000e+00  3.30000000e+00 
 6.24079960e-07  3.72221007e-05  3.30000000e+00  3.30000000e+00 
 6.29079960e-07  3.72221007e-05  3.30000000e+00  3.30000000e+00 
 6.34079960e-07  3.72221007e-05  3.30000000e+00  3.30000000e+00 
 6.39079960e-07  3.72221007e-05  3.30000000e+00  3.30000000e+00 
 6.44079960e-07  3.72221007e-05  3.30000000e+00  3.30000000e+00 
 6.49079960e-07  3.72221007e-05  3.30000000e+00  3.30000000e+00 
 6.54079960e-07  3.72221007e-05  3.30000000e+00  3.30000000e+00 
 6.59079960e-07  3.72221007e-05  3.30000000e+00  3.30000000e+00 
 6.64079960e-07  3.72221007e-05  3.30000000e+00  3.30000000e+00 
 6.69079960e-07  3.72221007e-05  3.30000000e+00  3.30000000e+00 
 6.74079960e-07  3.72221007e-05  3.30000000e+00  3.30000000e+00 
 6.79079960e-07  3.72221007e-05  3.30000000e+00  3.30000000e+00 
 6.84079960e-07  3.72221007e-05  3.30000000e+00  3.30000000e+00 
 6.89079960e-07  3.72221007e-05  3.30000000e+00  3.30000000e+00 
 6.94079960e-07  3.72221007e-05  3.30000000e+00  3.30000000e+00 
 6.99079960e-07  3.72221007e-05  3.30000000e+00  3.30000000e+00 
 7.04079960e-07  3.72221007e-05  3.30000000e+00  3.30000000e+00 
 7.09079960e-07  3.72221007e-05  3.30000000e+00  3.30000000e+00 
 7.14079960e-07  3.72221007e-05  3.30000000e+00  3.30000000e+00 
 7.19079960e-07  3.72221007e-05  3.30000000e+00  3.30000000e+00 
 7.24079960e-07  3.72221007e-05  3.30000000e+00  3.30000000e+00 
 7.29079960e-07  3.72221007e-05  3.30000000e+00  3.30000000e+00 
 7.34079960e-07  3.72221007e-05  3.30000000e+00  3.30000000e+00 
 7.39079960e-07  3.72221007e-05  3.30000000e+00  3.30000000e+00 
 7.44079960e-07  3.72221007e-05  3.30000000e+00  3.30000000e+00 
 7.49079960e-07  3.72221007e-05  3.30000000e+00  3.30000000e+00 
 7.54079960e-07  3.72221007e-05  3.30000000e+00  3.30000000e+00 
 7.59079960e-07  3.72221007e-05  3.30000000e+00  3.30000000e+00 
 7.64079960e-07  3.72221007e-05  3.30000000e+00  3.30000000e+00 
 7.69079960e-07  3.72221007e-05  3.30000000e+00  3.30000000e+00 
 7.74079960e-07  3.72221007e-05  3.30000000e+00  3.30000000e+00 
 7.79079960e-07  3.72221007e-05  3.30000000e+00  3.30000000e+00 
 7.84079960e-07  3.72221007e-05  3.30000000e+00  3.30000000e+00 
 7.89079960e-07  3.72221007e-05  3.30000000e+00  3.30000000e+00 
 7.94079960e-07  3.72221007e-05  3.30000000e+00  3.30000000e+00 
 7.99079960e-07  3.72221007e-05  3.30000000e+00  3.30000000e+00 
 8.04079960e-07  3.72221007e-05  3.30000000e+00  3.30000000e+00 
 8.09079960e-07  3.72221007e-05  3.30000000e+00  3.30000000e+00 
 8.14079960e-07  3.72221007e-05  3.30000000e+00  3.30000000e+00 
 8.19079960e-07  3.72221007e-05  3.30000000e+00  3.30000000e+00 
 8.24079960e-07  3.72221007e-05  3.30000000e+00  3.30000000e+00 
 8.29079960e-07  3.72221007e-05  3.30000000e+00  3.30000000e+00 
 8.34079960e-07  3.72221007e-05  3.30000000e+00  3.30000000e+00 
 8.39079960e-07  3.72221007e-05  3.30000000e+00  3.30000000e+00 
 8.44079960e-07  3.72221007e-05  3.30000000e+00  3.30000000e+00 
 8.49079960e-07  3.72221007e-05  3.30000000e+00  3.30000000e+00 
 8.54079960e-07  3.72221007e-05  3.30000000e+00  3.30000000e+00 
 8.59079960e-07  3.72221007e-05  3.30000000e+00  3.30000000e+00 
 8.64079960e-07  3.72221007e-05  3.30000000e+00  3.30000000e+00 
 8.69079960e-07  3.72221007e-05  3.30000000e+00  3.30000000e+00 
 8.74079960e-07  3.72221007e-05  3.30000000e+00  3.30000000e+00 
 8.79079960e-07  3.72221007e-05  3.30000000e+00  3.30000000e+00 
 8.84079960e-07  3.72221007e-05  3.30000000e+00  3.30000000e+00 
 8.89079960e-07  3.72221007e-05  3.30000000e+00  3.30000000e+00 
 8.94079960e-07  3.72221007e-05  3.30000000e+00  3.30000000e+00 
 8.99079960e-07  3.72221007e-05  3.30000000e+00  3.30000000e+00 
 9.04079960e-07  3.72221007e-05  3.30000000e+00  3.30000000e+00 
 9.09079960e-07  3.72221007e-05  3.30000000e+00  3.30000000e+00 
 9.14079960e-07  3.72221007e-05  3.30000000e+00  3.30000000e+00 
 9.19079960e-07  3.72221007e-05  3.30000000e+00  3.30000000e+00 
 9.24079960e-07  3.72221007e-05  3.30000000e+00  3.30000000e+00 
 9.29079960e-07  3.72221007e-05  3.30000000e+00  3.30000000e+00 
 9.34079960e-07  3.72221007e-05  3.30000000e+00  3.30000000e+00 
 9.39079960e-07  3.72221007e-05  3.30000000e+00  3.30000000e+00 
 9.44079960e-07  3.72221007e-05  3.30000000e+00  3.30000000e+00 
 9.49079960e-07  3.72221007e-05  3.30000000e+00  3.30000000e+00 
 9.54079960e-07  3.72221007e-05  3.30000000e+00  3.30000000e+00 
 9.59079960e-07  3.72221007e-05  3.30000000e+00  3.30000000e+00 
 9.64079960e-07  3.72221007e-05  3.30000000e+00  3.30000000e+00 
 9.69079960e-07  3.72221007e-05  3.30000000e+00  3.30000000e+00 
 9.74079960e-07  3.72221007e-05  3.30000000e+00  3.30000000e+00 
 9.79079960e-07  3.72221007e-05  3.30000000e+00  3.30000000e+00 
 9.84079960e-07  3.72221007e-05  3.30000000e+00  3.30000000e+00 
 9.89079960e-07  3.72221007e-05  3.30000000e+00  3.30000000e+00 
 9.94079960e-07  3.72221007e-05  3.30000000e+00  3.30000000e+00 
 9.99079960e-07  3.72221007e-05  3.30000000e+00  3.30000000e+00 
 1.00407996e-06  3.72221007e-05  3.30000000e+00  3.30000000e+00 
 1.00907996e-06  3.72221007e-05  3.30000000e+00  3.30000000e+00 
 1.01407996e-06  3.72221007e-05  3.30000000e+00  3.30000000e+00 
 1.01907996e-06  3.72221007e-05  3.30000000e+00  3.30000000e+00 
 1.02407996e-06  3.72221007e-05  3.30000000e+00  3.30000000e+00 
 1.02907996e-06  3.72221007e-05  3.30000000e+00  3.30000000e+00 
 1.03407996e-06  3.72221007e-05  3.30000000e+00  3.30000000e+00 
 1.03907996e-06  3.72221007e-05  3.30000000e+00  3.30000000e+00 
 1.04407996e-06  3.72221007e-05  3.30000000e+00  3.30000000e+00 
 1.04907996e-06  3.72221007e-05  3.30000000e+00  3.30000000e+00 
 1.05407996e-06  3.72221007e-05  3.30000000e+00  3.30000000e+00 
 1.05907996e-06  3.72221007e-05  3.30000000e+00  3.30000000e+00 
 1.06407996e-06  3.72221007e-05  3.30000000e+00  3.30000000e+00 
 1.06907996e-06  3.72221007e-05  3.30000000e+00  3.30000000e+00 
 1.07407996e-06  3.72221007e-05  3.30000000e+00  3.30000000e+00 
 1.07907996e-06  3.72221007e-05  3.30000000e+00  3.30000000e+00 
 1.08407996e-06  3.72221007e-05  3.30000000e+00  3.30000000e+00 
 1.08907996e-06  3.72221007e-05  3.30000000e+00  3.30000000e+00 
 1.09407996e-06  3.72221007e-05  3.30000000e+00  3.30000000e+00 
 1.09907996e-06  3.72221007e-05  3.30000000e+00  3.30000000e+00 
 1.10407996e-06  3.72221007e-05  3.30000000e+00  3.30000000e+00 
 1.10907996e-06  3.72221007e-05  3.30000000e+00  3.30000000e+00 
 1.11407996e-06  3.72221007e-05  3.30000000e+00  3.30000000e+00 
 1.11907996e-06  3.72221007e-05  3.30000000e+00  3.30000000e+00 
 1.12407996e-06  3.72221007e-05  3.30000000e+00  3.30000000e+00 
 1.12907996e-06  3.72221007e-05  3.30000000e+00  3.30000000e+00 
 1.13407996e-06  3.72221007e-05  3.30000000e+00  3.30000000e+00 
 1.13907996e-06  3.72221007e-05  3.30000000e+00  3.30000000e+00 
 1.14407996e-06  3.72221007e-05  3.30000000e+00  3.30000000e+00 
 1.14907996e-06  3.72221007e-05  3.30000000e+00  3.30000000e+00 
 1.15407996e-06  3.72221007e-05  3.30000000e+00  3.30000000e+00 
 1.15907996e-06  3.72221007e-05  3.30000000e+00  3.30000000e+00 
 1.16407996e-06  3.72221007e-05  3.30000000e+00  3.30000000e+00 
 1.16907996e-06  3.72221007e-05  3.30000000e+00  3.30000000e+00 
 1.17407996e-06  3.72221007e-05  3.30000000e+00  3.30000000e+00 
 1.17907996e-06  3.72221007e-05  3.30000000e+00  3.30000000e+00 
 1.18407996e-06  3.72221007e-05  3.30000000e+00  3.30000000e+00 
 1.18907996e-06  3.72221007e-05  3.30000000e+00  3.30000000e+00 
 1.19407996e-06  3.72221007e-05  3.30000000e+00  3.30000000e+00 
 1.19907996e-06  3.72221007e-05  3.30000000e+00  3.30000000e+00 
 1.20407996e-06  3.72221007e-05  3.30000000e+00  3.30000000e+00 
 1.20907996e-06  3.72221007e-05  3.30000000e+00  3.30000000e+00 
 1.21407996e-06  3.72221007e-05  3.30000000e+00  3.30000000e+00 
 1.21907996e-06  3.72221007e-05  3.30000000e+00  3.30000000e+00 
 1.22407996e-06  3.72221007e-05  3.30000000e+00  3.30000000e+00 
 1.22907996e-06  3.72221007e-05  3.30000000e+00  3.30000000e+00 
 1.23407996e-06  3.72221007e-05  3.30000000e+00  3.30000000e+00 
 1.23907996e-06  3.72221007e-05  3.30000000e+00  3.30000000e+00 
 1.24407996e-06  3.72221007e-05  3.30000000e+00  3.30000000e+00 
 1.24907996e-06  3.72221007e-05  3.30000000e+00  3.30000000e+00 
 1.25407996e-06  3.72221007e-05  3.30000000e+00  3.30000000e+00 
 1.25907996e-06  3.72221007e-05  3.30000000e+00  3.30000000e+00 
 1.26407996e-06  3.72221007e-05  3.30000000e+00  3.30000000e+00 
 1.26907996e-06  3.72221007e-05  3.30000000e+00  3.30000000e+00 
 1.27407996e-06  3.72221007e-05  3.30000000e+00  3.30000000e+00 
 1.27907996e-06  3.72221007e-05  3.30000000e+00  3.30000000e+00 
 1.28407996e-06  3.72221007e-05  3.30000000e+00  3.30000000e+00 
 1.28907996e-06  3.72221007e-05  3.30000000e+00  3.30000000e+00 
 1.29407996e-06  3.72221007e-05  3.30000000e+00  3.30000000e+00 
 1.29907996e-06  3.72221007e-05  3.30000000e+00  3.30000000e+00 
 1.30407996e-06  3.72221007e-05  3.30000000e+00  3.30000000e+00 
 1.30907996e-06  3.72221007e-05  3.30000000e+00  3.30000000e+00 
 1.31407996e-06  3.72221007e-05  3.30000000e+00  3.30000000e+00 
 1.31907996e-06  3.72221007e-05  3.30000000e+00  3.30000000e+00 
 1.32407996e-06  3.72221007e-05  3.30000000e+00  3.30000000e+00 
 1.32907996e-06  3.72221007e-05  3.30000000e+00  3.30000000e+00 
 1.33407996e-06  3.72221007e-05  3.30000000e+00  3.30000000e+00 
 1.33907996e-06  3.72221007e-05  3.30000000e+00  3.30000000e+00 
 1.34407996e-06  3.72221007e-05  3.30000000e+00  3.30000000e+00 
 1.34907996e-06  3.72221007e-05  3.30000000e+00  3.30000000e+00 
 1.35407996e-06  3.72221007e-05  3.30000000e+00  3.30000000e+00 
 1.35907996e-06  3.72221007e-05  3.30000000e+00  3.30000000e+00 
 1.36407996e-06  3.72221007e-05  3.30000000e+00  3.30000000e+00 
 1.36907996e-06  3.72221007e-05  3.30000000e+00  3.30000000e+00 
 1.37407996e-06  3.72221007e-05  3.30000000e+00  3.30000000e+00 
 1.37907996e-06  3.72221007e-05  3.30000000e+00  3.30000000e+00 
 1.38407996e-06  3.72221007e-05  3.30000000e+00  3.30000000e+00 
 1.38907996e-06  3.72221007e-05  3.30000000e+00  3.30000000e+00 
 1.39407996e-06  3.72221007e-05  3.30000000e+00  3.30000000e+00 
 1.39907996e-06  3.72221007e-05  3.30000000e+00  3.30000000e+00 
 1.40407996e-06  3.72221007e-05  3.30000000e+00  3.30000000e+00 
 1.40907996e-06  3.72221007e-05  3.30000000e+00  3.30000000e+00 
 1.41407996e-06  3.72221007e-05  3.30000000e+00  3.30000000e+00 
 1.41907996e-06  3.72221007e-05  3.30000000e+00  3.30000000e+00 
 1.42407996e-06  3.72221007e-05  3.30000000e+00  3.30000000e+00 
 1.42907996e-06  3.72221007e-05  3.30000000e+00  3.30000000e+00 
 1.43407996e-06  3.72221007e-05  3.30000000e+00  3.30000000e+00 
